! Created Tue Feb 13 11:45:42 2024
# hz S ma R 0.1
! Modal data exported
! Port[1] = pkg_bga
! Port[2] = pcbCap_C701
! Port[3] = pcbCap_C702
! Port[4] = pcbCap_C703
! Port[5] = pcbCap_C704
! 5 Port Network Data from SP1.SP block
! freq  magS11  angS11  magS12  angS12  magS13  angS13  magS14  angS14  
!       magS15  angS15  
!       magS21  angS21  magS22  angS22  magS23  angS23  
!       magS24  angS24  magS25  angS25  
!       magS31  angS31  magS32  angS32  
!       magS33  angS33  magS34  angS34  magS35  angS35  
!       magS41  angS41  
!       magS42  angS42  magS43  angS43  magS44  angS44  magS45  angS45  
!       magS51  angS51  magS52  angS52  magS53  angS53  magS54  angS54  
!       magS55  angS55  
!     
   0.000000000e+00   5.977524527e-01   -1.799972344e+02    3.994693283e-01   -4.113276102e-03    3.993915843e-01   -4.113555537e-03    3.993964941e-01   -4.113620039e-03
                  3.994943299e-01   -4.113474946e-03
                  3.994693283e-01   -4.113276102e-03    5.908831490e-01   -1.799972399e+02    3.974038481e-01   -4.108861739e-03    3.970331399e-01   -4.113038550e-03
                  3.969761211e-01   -4.114574307e-03
                  3.993915843e-01   -4.113555537e-03    3.974038481e-01   -4.108861739e-03    5.911333162e-01   -1.799972417e+02    3.972963077e-01   -4.109587082e-03
                  3.970408646e-01   -4.113305191e-03
                  3.993964941e-01   -4.113620039e-03    3.970331399e-01   -4.113038550e-03    3.972963077e-01   -4.109587082e-03    5.911278937e-01   -1.799972416e+02
                  3.974012404e-01   -4.109474351e-03
                  3.994943299e-01   -4.113474946e-03    3.969761211e-01   -4.114574307e-03    3.970408646e-01   -4.113305191e-03    3.974012404e-01   -4.109474351e-03
                  5.909132679e-01   -1.799972394e+02

   1.047128548e+00   5.977524540e-01   -1.799971040e+02    3.994693272e-01   -4.307122902e-03    3.993915831e-01   -4.307415505e-03    3.993964929e-01   -4.307483047e-03
                  3.994943288e-01   -4.307331117e-03
                  3.994693272e-01   -4.307122902e-03    5.908831503e-01   -1.799971099e+02    3.974038469e-01   -4.302500504e-03    3.970331388e-01   -4.306874157e-03
                  3.969761200e-01   -4.308482289e-03
                  3.993915831e-01   -4.307415505e-03    3.974038469e-01   -4.302500504e-03    5.911333175e-01   -1.799971118e+02    3.972963066e-01   -4.303260030e-03
                  3.970408635e-01   -4.307153363e-03
                  3.993964929e-01   -4.307483047e-03    3.970331388e-01   -4.306874157e-03    3.972963066e-01   -4.303260030e-03    5.911278949e-01   -1.799971116e+02
                  3.974012393e-01   -4.303141986e-03
                  3.994943288e-01   -4.307331117e-03    3.969761200e-01   -4.308482289e-03    3.970408635e-01   -4.307153363e-03    3.974012393e-01   -4.303141986e-03
                  5.909132692e-01   -1.799971094e+02

   1.096478196e+00   5.977524554e-01   -1.799969675e+02    3.994693259e-01   -4.510104542e-03    3.993915819e-01   -4.510410935e-03    3.993964917e-01   -4.510481661e-03
                  3.994943276e-01   -4.510322570e-03
                  3.994693259e-01   -4.510104542e-03    5.908831517e-01   -1.799969737e+02    3.974038457e-01   -4.505264307e-03    3.970331375e-01   -4.509844077e-03
                  3.969761188e-01   -4.511527995e-03
                  3.993915819e-01   -4.510410935e-03    3.974038457e-01   -4.505264307e-03    5.911333189e-01   -1.799969756e+02    3.972963053e-01   -4.506059628e-03
                  3.970408623e-01   -4.510136441e-03
                  3.993964917e-01   -4.510481661e-03    3.970331375e-01   -4.509844077e-03    3.972963053e-01   -4.506059628e-03    5.911278963e-01   -1.799969755e+02
                  3.974012381e-01   -4.505936020e-03
                  3.994943276e-01   -4.510322570e-03    3.969761188e-01   -4.511527995e-03    3.970408623e-01   -4.510136441e-03    3.974012381e-01   -4.505936020e-03
                  5.909132706e-01   -1.799969731e+02

   1.148153621e+00   5.977524570e-01   -1.799968246e+02    3.994693246e-01   -4.722651407e-03    3.993915806e-01   -4.722972239e-03    3.993964904e-01   -4.723046298e-03
                  3.994943262e-01   -4.722879709e-03
                  3.994693246e-01   -4.722651407e-03    5.908831532e-01   -1.799968310e+02    3.974038444e-01   -4.717583069e-03    3.970331362e-01   -4.722378669e-03
                  3.969761174e-01   -4.724141945e-03
                  3.993915806e-01   -4.722972239e-03    3.974038444e-01   -4.717583069e-03    5.911333205e-01   -1.799968331e+02    3.972963040e-01   -4.718415870e-03
                  3.970408610e-01   -4.722684812e-03
                  3.993964904e-01   -4.723046298e-03    3.970331362e-01   -4.722378669e-03    3.972963040e-01   -4.718415870e-03    5.911278979e-01   -1.799968329e+02
                  3.974012368e-01   -4.718286438e-03
                  3.994943262e-01   -4.722879709e-03    3.969761174e-01   -4.724141945e-03    3.970408610e-01   -4.722684812e-03    3.974012368e-01   -4.718286438e-03
                  5.909132721e-01   -1.799968305e+02

   1.202264435e+00   5.977524587e-01   -1.799966750e+02    3.994693231e-01   -4.945214142e-03    3.993915791e-01   -4.945550094e-03    3.993964889e-01   -4.945627642e-03
                  3.994943247e-01   -4.945453203e-03
                  3.994693231e-01   -4.945214142e-03    5.908831549e-01   -1.799966817e+02    3.974038429e-01   -4.939906953e-03    3.970331347e-01   -4.944928554e-03
                  3.969761159e-01   -4.946774928e-03
                  3.993915791e-01   -4.945550094e-03    3.974038429e-01   -4.939906953e-03    5.911333222e-01   -1.799966839e+02    3.972963025e-01   -4.940779001e-03
                  3.970408595e-01   -4.945249124e-03
                  3.993964889e-01   -4.945627642e-03    3.970331347e-01   -4.944928554e-03    3.972963025e-01   -4.940779001e-03    5.911278996e-01   -1.799966837e+02
                  3.974012353e-01   -4.940643469e-03
                  3.994943247e-01   -4.945453203e-03    3.969761159e-01   -4.946774928e-03    3.970408595e-01   -4.945249124e-03    3.974012353e-01   -4.940643469e-03
                  5.909132738e-01   -1.799966811e+02

   1.258925412e+00   5.977524606e-01   -1.799965183e+02    3.994693214e-01   -5.178264611e-03    3.993915774e-01   -5.178616395e-03    3.993964872e-01   -5.178697598e-03
                  3.994943231e-01   -5.178514938e-03
                  3.994693214e-01   -5.178264611e-03    5.908831568e-01   -1.799965253e+02    3.974038413e-01   -5.172707315e-03    3.970331331e-01   -5.177965567e-03
                  3.969761143e-01   -5.179898954e-03
                  3.993915774e-01   -5.178616395e-03    3.974038413e-01   -5.172707315e-03    5.911333240e-01   -1.799965276e+02    3.972963009e-01   -5.173620461e-03
                  3.970408579e-01   -5.178301245e-03
                  3.993964872e-01   -5.178697598e-03    3.970331331e-01   -5.177965567e-03    3.972963009e-01   -5.173620461e-03    5.911279014e-01   -1.799965274e+02
                  3.974012336e-01   -5.173478541e-03
                  3.994943231e-01   -5.178514938e-03    3.969761143e-01   -5.179898954e-03    3.970408579e-01   -5.178301245e-03    3.974012336e-01   -5.173478541e-03
                  5.909132757e-01   -1.799965247e+02

   1.318256739e+00   5.977524627e-01   -1.799963542e+02    3.994693196e-01   -5.422296890e-03    3.993915756e-01   -5.422665252e-03    3.993964854e-01   -5.422750282e-03
                  3.994943213e-01   -5.422559014e-03
                  3.994693196e-01   -5.422296890e-03    5.908831588e-01   -1.799963616e+02    3.974038395e-01   -5.416477703e-03    3.970331313e-01   -5.421983757e-03
                  3.969761125e-01   -5.424008258e-03
                  3.993915756e-01   -5.422665252e-03    3.974038395e-01   -5.416477703e-03    5.911333261e-01   -1.799963640e+02    3.972962991e-01   -5.417433882e-03
                  3.970408561e-01   -5.422335254e-03
                  3.993964854e-01   -5.422750282e-03    3.970331313e-01   -5.421983757e-03    3.972962991e-01   -5.417433882e-03    5.911279035e-01   -1.799963638e+02
                  3.974012318e-01   -5.417285273e-03
                  3.994943213e-01   -5.422559014e-03    3.969761125e-01   -5.424008258e-03    3.970408561e-01   -5.422335254e-03    3.974012318e-01   -5.417285273e-03
                  5.909132777e-01   -1.799963609e+02

   1.380384265e+00   5.977524650e-01   -1.799961824e+02    3.994693177e-01   -5.677828312e-03    3.993915736e-01   -5.678214034e-03    3.993964834e-01   -5.678303071e-03
                  3.994943193e-01   -5.678102789e-03
                  3.994693177e-01   -5.677828312e-03    5.908831611e-01   -1.799961901e+02    3.974038375e-01   -5.671734893e-03    3.970331293e-01   -5.677500427e-03
                  3.969761106e-01   -5.679620334e-03
                  3.993915736e-01   -5.678214034e-03    3.974038375e-01   -5.671734893e-03    5.911333283e-01   -1.799961926e+02    3.972962971e-01   -5.672736133e-03
                  3.970408541e-01   -5.677868488e-03
                  3.993964834e-01   -5.678303071e-03    3.970331293e-01   -5.677500427e-03    3.972962971e-01   -5.672736133e-03    5.911279058e-01   -1.799961924e+02
                  3.974012299e-01   -5.672580521e-03
                  3.994943193e-01   -5.678102789e-03    3.969761106e-01   -5.679620334e-03    3.970408541e-01   -5.677868488e-03    3.974012299e-01   -5.672580521e-03
                  5.909132800e-01   -1.799961894e+02

   1.445439771e+00   5.977524675e-01   -1.799960025e+02    3.994693155e-01   -5.945400558e-03    3.993915715e-01   -5.945804458e-03    3.993964812e-01   -5.945897691e-03
                  3.994943171e-01   -5.945687970e-03
                  3.994693155e-01   -5.945400558e-03    5.908831636e-01   -1.799960106e+02    3.974038353e-01   -5.939019986e-03    3.970331271e-01   -5.945057227e-03
                  3.969761084e-01   -5.947277036e-03
                  3.993915715e-01   -5.945804458e-03    3.974038353e-01   -5.939019986e-03    5.911333308e-01   -1.799960132e+02    3.972962949e-01   -5.940068411e-03
                  3.970408519e-01   -5.945442633e-03
                  3.993964812e-01   -5.945897691e-03    3.970331271e-01   -5.945057227e-03    3.972962949e-01   -5.940068411e-03    5.911279082e-01   -1.799960130e+02
                  3.974012277e-01   -5.939905465e-03
                  3.994943171e-01   -5.945687970e-03    3.969761084e-01   -5.947277036e-03    3.970408519e-01   -5.945442633e-03    3.974012277e-01   -5.939905465e-03
                  5.909132825e-01   -1.799960099e+02

   1.513561248e+00   5.977524703e-01   -1.799958141e+02    3.994693131e-01   -6.225580800e-03    3.993915690e-01   -6.226003734e-03    3.993964788e-01   -6.226101361e-03
                  3.994943147e-01   -6.225881757e-03
                  3.994693131e-01   -6.225580800e-03    5.908831663e-01   -1.799958226e+02    3.974038329e-01   -6.218899546e-03    3.970331248e-01   -6.225221295e-03
                  3.969761060e-01   -6.227545715e-03
                  3.993915690e-01   -6.226003734e-03    3.974038329e-01   -6.218899546e-03    5.911333335e-01   -1.799958253e+02    3.972962926e-01   -6.219997378e-03
                  3.970408495e-01   -6.225624864e-03
                  3.993964788e-01   -6.226101361e-03    3.970331248e-01   -6.225221295e-03    3.972962926e-01   -6.219997378e-03    5.911279110e-01   -1.799958251e+02
                  3.974012253e-01   -6.219826754e-03
                  3.994943147e-01   -6.225881757e-03    3.969761060e-01   -6.227545715e-03    3.970408495e-01   -6.225624864e-03    3.974012253e-01   -6.219826754e-03
                  5.909132852e-01   -1.799958218e+02

   1.584893192e+00   5.977524733e-01   -1.799956168e+02    3.994693104e-01   -6.518962898e-03    3.993915664e-01   -6.519405763e-03    3.993964762e-01   -6.519507991e-03
                  3.994943120e-01   -6.519278037e-03
                  3.994693104e-01   -6.518962898e-03    5.908831693e-01   -1.799956257e+02    3.974038303e-01   -6.511966793e-03    3.970331221e-01   -6.518586458e-03
                  3.969761034e-01   -6.521020417e-03
                  3.993915664e-01   -6.519405763e-03    3.974038303e-01   -6.511966793e-03    5.911333366e-01   -1.799956286e+02    3.972962899e-01   -6.513116362e-03
                  3.970408469e-01   -6.519009045e-03
                  3.993964762e-01   -6.519507991e-03    3.970331221e-01   -6.518586458e-03    3.972962899e-01   -6.513116362e-03    5.911279140e-01   -1.799956283e+02
                  3.974012227e-01   -6.512937696e-03
                  3.994943120e-01   -6.519278037e-03    3.969761034e-01   -6.521020417e-03    3.970408469e-01   -6.519009045e-03    3.974012227e-01   -6.512937696e-03
                  5.909132882e-01   -1.799956249e+02

   1.659586907e+00   5.977524767e-01   -1.799954103e+02    3.994693075e-01   -6.826168649e-03    3.993915635e-01   -6.826632385e-03    3.993964733e-01   -6.826739430e-03
                  3.994943091e-01   -6.826498639e-03
                  3.994693075e-01   -6.826168649e-03    5.908831726e-01   -1.799954196e+02    3.974038274e-01   -6.818842860e-03    3.970331192e-01   -6.825774477e-03
                  3.969761005e-01   -6.828323136e-03
                  3.993915635e-01   -6.826632385e-03    3.974038274e-01   -6.818842860e-03    5.911333398e-01   -1.799954226e+02    3.972962871e-01   -6.820046602e-03
                  3.970408440e-01   -6.826216979e-03
                  3.993964733e-01   -6.826739430e-03    3.970331192e-01   -6.825774477e-03    3.972962871e-01   -6.820046602e-03    5.911279173e-01   -1.799954223e+02
                  3.974012198e-01   -6.819859516e-03
                  3.994943091e-01   -6.826498639e-03    3.969761005e-01   -6.828323136e-03    3.970408440e-01   -6.826216979e-03    3.974012198e-01   -6.819859516e-03
                  5.909132915e-01   -1.799954187e+02

   1.737800829e+00   5.977524803e-01   -1.799951940e+02    3.994693043e-01   -7.147849099e-03    3.993915603e-01   -7.148334688e-03    3.993964701e-01   -7.148446777e-03
                  3.994943059e-01   -7.148194639e-03
                  3.994693043e-01   -7.147849099e-03    5.908831762e-01   -1.799952037e+02    3.974038243e-01   -7.140178092e-03    3.970331161e-01   -7.147436361e-03
                  3.969760973e-01   -7.150105124e-03
                  3.993915603e-01   -7.148334688e-03    3.974038243e-01   -7.140178092e-03    5.911333435e-01   -1.799952068e+02    3.972962839e-01   -7.141438560e-03
                  3.970408409e-01   -7.147899715e-03
                  3.993964701e-01   -7.148446777e-03    3.970331161e-01   -7.147436361e-03    3.972962839e-01   -7.141438560e-03    5.911279209e-01   -1.799952066e+02
                  3.974012166e-01   -7.141242658e-03
                  3.994943059e-01   -7.148194639e-03    3.969760973e-01   -7.150105124e-03    3.970408409e-01   -7.147899715e-03    3.974012166e-01   -7.141242658e-03
                  5.909132951e-01   -1.799952028e+02

   1.819700859e+00   5.977524844e-01   -1.799949675e+02    3.994693008e-01   -7.484685911e-03    3.993915568e-01   -7.485194383e-03    3.993964666e-01   -7.485311754e-03
                  3.994943024e-01   -7.485047734e-03
                  3.994693008e-01   -7.484685911e-03    5.908831802e-01   -1.799949777e+02    3.974038208e-01   -7.476653422e-03    3.970331126e-01   -7.484253733e-03
                  3.969760938e-01   -7.487048260e-03
                  3.993915568e-01   -7.485194383e-03    3.974038208e-01   -7.476653422e-03    5.911333475e-01   -1.799949810e+02    3.972962804e-01   -7.477973289e-03
                  3.970408374e-01   -7.484738922e-03
                  3.993964666e-01   -7.485311754e-03    3.970331126e-01   -7.484253733e-03    3.972962804e-01   -7.477973289e-03    5.911279249e-01   -1.799949807e+02
                  3.974012132e-01   -7.477768155e-03
                  3.994943024e-01   -7.485047734e-03    3.969760938e-01   -7.487048260e-03    3.970408374e-01   -7.484738922e-03    3.974012132e-01   -7.477768155e-03
                  5.909132991e-01   -1.799949768e+02

   1.905460718e+00   5.977524888e-01   -1.799947304e+02    3.994692970e-01   -7.837392800e-03    3.993915530e-01   -7.837925234e-03    3.993964627e-01   -7.838048136e-03
                  3.994942986e-01   -7.837771674e-03
                  3.994692970e-01   -7.837392800e-03    5.908831846e-01   -1.799947410e+02    3.974038170e-01   -7.828981799e-03    3.970331088e-01   -7.836940268e-03
                  3.969760900e-01   -7.839866484e-03
                  3.993915530e-01   -7.837925234e-03    3.974038170e-01   -7.828981799e-03    5.911333518e-01   -1.799947445e+02    3.972962766e-01   -7.830363864e-03
                  3.970408335e-01   -7.837448321e-03
                  3.993964627e-01   -7.838048136e-03    3.970331088e-01   -7.836940268e-03    3.972962766e-01   -7.830363864e-03    5.911279292e-01   -1.799947442e+02
                  3.974012093e-01   -7.830149063e-03
                  3.994942986e-01   -7.837771674e-03    3.969760900e-01   -7.839866484e-03    3.970408335e-01   -7.837448321e-03    3.974012093e-01   -7.830149063e-03
                  5.909133035e-01   -1.799947401e+02

   1.995262315e+00   5.977524937e-01   -1.799944821e+02    3.994692927e-01   -8.206717034e-03    3.993915487e-01   -8.207274559e-03    3.993964585e-01   -8.207403253e-03
                  3.994942944e-01   -8.207113762e-03
                  3.994692927e-01   -8.206717034e-03    5.908831894e-01   -1.799944932e+02    3.974038128e-01   -8.197909690e-03    3.970331046e-01   -8.206243191e-03
                  3.969760858e-01   -8.209307301e-03
                  3.993915487e-01   -8.207274559e-03    3.974038128e-01   -8.197909690e-03    5.911333566e-01   -1.799944968e+02    3.972962724e-01   -8.199356884e-03
                  3.970408293e-01   -8.206775185e-03
                  3.993964585e-01   -8.207403253e-03    3.970331046e-01   -8.206243191e-03    3.972962724e-01   -8.199356884e-03    5.911279340e-01   -1.799944965e+02
                  3.974012051e-01   -8.199131960e-03
                  3.994942944e-01   -8.207113762e-03    3.969760858e-01   -8.209307301e-03    3.970408293e-01   -8.206775185e-03    3.974012051e-01   -8.199131960e-03
                  5.909133083e-01   -1.799944922e+02

   2.089296131e+00   5.977524990e-01   -1.799942220e+02    3.994692881e-01   -8.593441003e-03    3.993915441e-01   -8.594024799e-03    3.993964539e-01   -8.594159558e-03
                  3.994942897e-01   -8.593856425e-03
                  3.994692881e-01   -8.593441003e-03    5.908831947e-01   -1.799942337e+02    3.974038081e-01   -8.584218644e-03    3.970330999e-01   -8.592944846e-03
                  3.969760812e-01   -8.596153345e-03
                  3.993915441e-01   -8.594024799e-03    3.974038081e-01   -8.584218644e-03    5.911333619e-01   -1.799942375e+02    3.972962678e-01   -8.585734034e-03
                  3.970408247e-01   -8.593501909e-03
                  3.993964539e-01   -8.594159558e-03    3.970330999e-01   -8.592944846e-03    3.972962678e-01   -8.585734034e-03    5.911279393e-01   -1.799942372e+02
                  3.974012005e-01   -8.585498510e-03
                  3.994942897e-01   -8.593856425e-03    3.969760812e-01   -8.596153345e-03    3.970408247e-01   -8.593501909e-03    3.974012005e-01   -8.585498510e-03
                  5.909133136e-01   -1.799942327e+02

   2.187761624e+00   5.977525049e-01   -1.799939498e+02    3.994692830e-01   -8.998383855e-03    3.993915390e-01   -8.998995162e-03    3.993964488e-01   -8.999136271e-03
                  3.994942846e-01   -8.998818854e-03
                  3.994692830e-01   -8.998383855e-03    5.908832005e-01   -1.799939620e+02    3.974038031e-01   -8.988726932e-03    3.970330949e-01   -8.997864336e-03
                  3.969760761e-01   -9.001224028e-03
