! NPort=3 DATA=451 NOISE=0 GROUPDELAY=0 COMPLEX_DATAFORMAT=POLAR
! NumOfBlock=1 NumOfParam=0
!
! .MODEL Smodel S TSTONEFILE=example_modif/d_example_modif.s3p TYPE=S
!   -- The above .MODEL line can be used for the S element in the netlist.
!
!
# Hz S MA R            0.1
             0      0.330403           180      0.665185             0      0.665217             0
                    0.665185             0      0.326791           180      0.661605             0
                    0.665217             0      0.661605             0      0.326823           180
       1.04713      0.330403      -179.985      0.665185   -0.00732699      0.665217   -0.00732728
                    0.665185   -0.00732699      0.326791      -179.985      0.661605   -0.00732237
                    0.665217   -0.00732728      0.661605   -0.00732237      0.326823      -179.985
       1.09648      0.330403      -179.984      0.665185    -0.0076723      0.665217    -0.0076726
                    0.665185    -0.0076723      0.326791      -179.984      0.661605   -0.00766746
                    0.665217    -0.0076726      0.661605   -0.00766746      0.326823      -179.984
       1.14815      0.330403      -179.984      0.665185   -0.00803383      0.665217   -0.00803415
                    0.665185   -0.00803383      0.326791      -179.984      0.661605   -0.00802877
                    0.665217   -0.00803415      0.661605   -0.00802877      0.326823      -179.984
       1.20226      0.330403      -179.983      0.665185   -0.00841243      0.665217   -0.00841277
                    0.665185   -0.00841243      0.326791      -179.983      0.661605   -0.00840713
                    0.665217   -0.00841277      0.661605   -0.00840713      0.326823      -179.983
       1.25893      0.330403      -179.982      0.665185   -0.00880895      0.665217   -0.00880929
                    0.665185   -0.00880895      0.326791      -179.982      0.661605   -0.00880339
                    0.665217   -0.00880929      0.661605   -0.00880339      0.326823      -179.982
       1.31826      0.330403      -179.981      0.665185   -0.00922407      0.665217   -0.00922443
                    0.665185   -0.00922407      0.326791      -179.981      0.661605   -0.00921825
                    0.665217   -0.00922443      0.661605   -0.00921825      0.326823      -179.981
       1.38038      0.330403       -179.98      0.665185   -0.00965871      0.665217   -0.00965909
                    0.665185   -0.00965871      0.326791       -179.98      0.661605   -0.00965262
                    0.665217   -0.00965909      0.661605   -0.00965262      0.326823       -179.98
       1.44544      0.330403       -179.98      0.665185    -0.0101139      0.665217    -0.0101143
                    0.665185    -0.0101139      0.326791       -179.98      0.661605    -0.0101075
                    0.665217    -0.0101143      0.661605    -0.0101075      0.326823       -179.98
       1.51356      0.330403      -179.979      0.665185    -0.0105905      0.665217    -0.0105909
                    0.665185    -0.0105905      0.326791      -179.979      0.661605    -0.0105838
                    0.665217    -0.0105909      0.661605    -0.0105838      0.326823      -179.979
       1.58489      0.330403      -179.978      0.665185    -0.0110896      0.665217      -0.01109
                    0.665185    -0.0110896      0.326791      -179.978      0.661605    -0.0110826
                    0.665217      -0.01109      0.661605    -0.0110826      0.326823      -179.978
       1.65959      0.330403      -179.976      0.665185    -0.0116122      0.665217    -0.0116127
                    0.665185    -0.0116122      0.326791      -179.977      0.661605    -0.0116049
                    0.665217    -0.0116127      0.661605    -0.0116049      0.326823      -179.977
        1.7378      0.330403      -179.975      0.665185    -0.0121594      0.665217    -0.0121599
                    0.665185    -0.0121594      0.326791      -179.975      0.661605    -0.0121518
                    0.665217    -0.0121599      0.661605    -0.0121518      0.326823      -179.975
        1.8197      0.330403      -179.974      0.665185    -0.0127324      0.665217    -0.0127329
                    0.665185    -0.0127324      0.326791      -179.974      0.661605    -0.0127244
                    0.665217    -0.0127329      0.661605    -0.0127244      0.326823      -179.974
       1.90546      0.330403      -179.973      0.665185    -0.0133324      0.665217     -0.013333
                    0.665185    -0.0133324      0.326791      -179.973      0.661605     -0.013324
                    0.665217     -0.013333      0.661605     -0.013324      0.326823      -179.973
       1.99526      0.330403      -179.972      0.665185    -0.0139607      0.665217    -0.0139612
                    0.665185    -0.0139607      0.326791      -179.972      0.661605    -0.0139519
                    0.665217    -0.0139612      0.661605    -0.0139519      0.326823      -179.972
        2.0893      0.330403       -179.97      0.665185    -0.0146186      0.665217    -0.0146192
                    0.665185    -0.0146186      0.326791       -179.97      0.661605    -0.0146094
                    0.665217    -0.0146192      0.661605    -0.0146094      0.326823       -179.97
       2.18776      0.330403      -179.969      0.665185    -0.0153074      0.665217     -0.015308
                    0.665185    -0.0153074      0.326791      -179.969      0.661605    -0.0152978
                    0.665217     -0.015308      0.661605    -0.0152978      0.326823      -179.969
       2.29087      0.330403      -179.968      0.665185    -0.0160288      0.665217    -0.0160294
                    0.665185    -0.0160288      0.326791      -179.968      0.661605    -0.0160187
                    0.665217    -0.0160294      0.661605    -0.0160187      0.326823      -179.968
       2.39883      0.330403      -179.966      0.665185     -0.016784      0.665217    -0.0167847
                    0.665185     -0.016784      0.326791      -179.966      0.661605    -0.0167734
                    0.665217    -0.0167847      0.661605    -0.0167734      0.326823      -179.966
       2.51189      0.330403      -179.964      0.665185     -0.017575      0.665217    -0.0175756
                    0.665185     -0.017575      0.326791      -179.964      0.661605    -0.0175639
                    0.665217    -0.0175756      0.661605    -0.0175639      0.326823      -179.964
       2.63027      0.330403      -179.963      0.665185    -0.0184031      0.665217    -0.0184038
                    0.665185    -0.0184031      0.326791      -179.963      0.661605    -0.0183915
                    0.665217    -0.0184038      0.661605    -0.0183915      0.326823      -179.963
       2.75423      0.330404      -179.961      0.665185    -0.0192702      0.665217     -0.019271
                    0.665185    -0.0192702      0.326791      -179.961      0.661605     -0.019258
                    0.665217     -0.019271      0.661605     -0.019258      0.326823      -179.961
       2.88403      0.330404      -179.959      0.665185    -0.0201781      0.665217    -0.0201789
                    0.665185    -0.0201781      0.326792      -179.959      0.661605    -0.0201654
                    0.665217    -0.0201789      0.661605    -0.0201654      0.326823      -179.959
       3.01995      0.330404      -179.957      0.665185    -0.0211289      0.665217    -0.0211297
                    0.665185    -0.0211289      0.326792      -179.957      0.661605    -0.0211155
                    0.665217    -0.0211297      0.661605    -0.0211155      0.326824      -179.957
       3.16228      0.330404      -179.955      0.665185    -0.0221244      0.665217    -0.0221253
                    0.665185    -0.0221244      0.326792      -179.955      0.661605    -0.0221104
                    0.665217    -0.0221253      0.661605    -0.0221104      0.326824      -179.955
       3.31131      0.330404      -179.953      0.665185    -0.0231667      0.665217    -0.0231677
                    0.665185    -0.0231667      0.326792      -179.953      0.661605    -0.0231521
                    0.665217    -0.0231677      0.661605    -0.0231521      0.326824      -179.953
       3.46737      0.330404      -179.951      0.665185    -0.0242582      0.665217    -0.0242592
                    0.665185    -0.0242582      0.326792      -179.951      0.661605    -0.0242429
                    0.665217    -0.0242592      0.661605    -0.0242429      0.326824      -179.951
       3.63078      0.330404      -179.949      0.665185    -0.0254011      0.665217    -0.0254021
                    0.665185    -0.0254011      0.326792      -179.949      0.661604     -0.025385
                    0.665217    -0.0254021      0.661604     -0.025385      0.326824      -179.949
       3.80189      0.330404      -179.946      0.665184    -0.0265977      0.665216    -0.0265987
                    0.665184    -0.0265977      0.326792      -179.946      0.661604    -0.0265809
                    0.665216    -0.0265987      0.661604    -0.0265809      0.326824      -179.946
       3.98107      0.330404      -179.944      0.665184    -0.0278507      0.665216    -0.0278518
                    0.665184    -0.0278507      0.326792      -179.944      0.661604    -0.0278331
                    0.665216    -0.0278518      0.661604    -0.0278331      0.326824      -179.944
       4.16869      0.330404      -179.941      0.665184    -0.0291626      0.665216    -0.0291638
                    0.665184    -0.0291626      0.326792      -179.941      0.661604    -0.0291442
                    0.665216    -0.0291638      0.661604    -0.0291442      0.326824      -179.941
       4.36516      0.330404      -179.938      0.665184    -0.0305364      0.665216    -0.0305376
                    0.665184    -0.0305364      0.326792      -179.938      0.661604    -0.0305171
                    0.665216    -0.0305376      0.661604    -0.0305171      0.326824      -179.938
       4.57088      0.330404      -179.935      0.665184    -0.0319747      0.665216    -0.0319759
                    0.665184    -0.0319747      0.326792      -179.935      0.661604    -0.0319545
                    0.665216    -0.0319759      0.661604    -0.0319545      0.326824      -179.935
        4.7863      0.330404      -179.932      0.665184    -0.0334807      0.665216     -0.033482
                    0.665184    -0.0334807      0.326792      -179.932      0.661604    -0.0334596
                    0.665216     -0.033482      0.661604    -0.0334596      0.326824      -179.932
       5.01187      0.330404      -179.929      0.665184    -0.0350576      0.665216    -0.0350589
                    0.665184    -0.0350576      0.326792      -179.929      0.661604    -0.0350354
                    0.665216    -0.0350589      0.661604    -0.0350354      0.326824      -179.929
       5.24807      0.330405      -179.926      0.665184    -0.0367086      0.665216      -0.03671
                    0.665184    -0.0367086      0.326792      -179.926      0.661604    -0.0366854
                    0.665216      -0.03671      0.661604    -0.0366854      0.326824      -179.926
       5.49541      0.330405      -179.922      0.665184    -0.0384373      0.665216    -0.0384388
                    0.665184    -0.0384373      0.326793      -179.922      0.661604    -0.0384131
                    0.665216    -0.0384388      0.661604    -0.0384131      0.326825      -179.922
        5.7544      0.330405      -179.918      0.665184    -0.0402473      0.665216    -0.0402489
                    0.665184    -0.0402473      0.326793      -179.919      0.661604    -0.0402219
                    0.665216    -0.0402489      0.661604    -0.0402219      0.326825      -179.919
        6.0256      0.330405      -179.915      0.665184    -0.0421423      0.665216     -0.042144
                    0.665184    -0.0421423      0.326793      -179.915      0.661604    -0.0421158
                    0.665216     -0.042144      0.661604    -0.0421158      0.326825      -179.915
       6.30957      0.330405      -179.911      0.665184    -0.0441264      0.665216    -0.0441282
                    0.665184    -0.0441264      0.326793      -179.911      0.661604    -0.0440986
                    0.665216    -0.0441282      0.661604    -0.0440986      0.326825      -179.911
       6.60693      0.330405      -179.906      0.665183    -0.0462038      0.665215    -0.0462056
                    0.665183    -0.0462038      0.326793      -179.907      0.661603    -0.0461746
                    0.665215    -0.0462056      0.661603    -0.0461746      0.326825      -179.907
       6.91831      0.330406      -179.902      0.665183    -0.0483788      0.665215    -0.0483807
                    0.665183    -0.0483788      0.326793      -179.902      0.661603    -0.0483483
                    0.665215    -0.0483807      0.661603    -0.0483483      0.326825      -179.902
       7.24436      0.330406      -179.897      0.665183    -0.0506559      0.665215    -0.0506579
                    0.665183    -0.0506559      0.326794      -179.898      0.661603    -0.0506239
                    0.665215    -0.0506579      0.661603    -0.0506239      0.326826      -179.898
       7.58578      0.330406      -179.893      0.665183      -0.05304      0.665215    -0.0530421
                    0.665183      -0.05304      0.326794      -179.893      0.661603    -0.0530065
                    0.665215    -0.0530421      0.661603    -0.0530065      0.326826      -179.893
       7.94328      0.330406      -179.888      0.665183    -0.0555359      0.665215    -0.0555381
                    0.665183    -0.0555359      0.326794      -179.888      0.661603    -0.0555009
                    0.665215    -0.0555381      0.661603    -0.0555009      0.326826      -179.888
       8.31764      0.330407      -179.882      0.665183     -0.058149      0.665215    -0.0581513
                    0.665183     -0.058149      0.326795      -179.882      0.661603    -0.0581124
                    0.665215    -0.0581513      0.661603    -0.0581124      0.326826      -179.882
       8.70964      0.330407      -179.877      0.665182    -0.0608848      0.665214    -0.0608872
                    0.665182    -0.0608848      0.326795      -179.877      0.661602    -0.0608464
                    0.665214    -0.0608872      0.661602    -0.0608464      0.326827      -179.877
       9.12011      0.330407      -179.871      0.665182    -0.0637488      0.665214    -0.0637513
                    0.665182    -0.0637488      0.326795      -179.871      0.661602    -0.0637086
                    0.665214    -0.0637513      0.661602    -0.0637086      0.326827      -179.871
       9.54993      0.330408      -179.865      0.665182    -0.0667472      0.665214    -0.0667499
                    0.665182    -0.0667472      0.326796      -179.865      0.661602    -0.0667051
                    0.665214    -0.0667499      0.661602    -0.0667051      0.326828      -179.865
            10      0.330408      -179.858      0.665182    -0.0698861      0.665214    -0.0698889
                    0.665182    -0.0698861      0.326796      -179.859      0.661602    -0.0698421
                    0.665214    -0.0698889      0.661602    -0.0698421      0.326828      -179.859
       10.4713      0.330408      -179.852      0.665181    -0.0731723      0.665213    -0.0731752
                    0.665181    -0.0731723      0.326796      -179.852      0.661601    -0.0731261
                    0.665213    -0.0731752      0.661601    -0.0731261      0.326828      -179.852
       10.9648      0.330409      -179.845      0.665181    -0.0766123      0.665213    -0.0766153
                    0.665181    -0.0766123      0.326797      -179.845      0.661601     -0.076564
                    0.665213    -0.0766153      0.661601     -0.076564      0.326829      -179.845
       11.4815      0.330409      -179.838      0.665181    -0.0802131      0.665213    -0.0802162
                    0.665181    -0.0802131      0.326797      -179.838      0.661601    -0.0801625
                    0.665213    -0.0802162      0.661601    -0.0801625      0.326829      -179.838
       12.0226       0.33041       -179.83       0.66518    -0.0839828      0.665212    -0.0839861
                     0.66518    -0.0839828      0.326798       -179.83        0.6616    -0.0839298
                    0.665212    -0.0839861        0.6616    -0.0839298       0.32683       -179.83
       12.5893      0.330411      -179.822       0.66518    -0.0879296      0.665212    -0.0879331
                     0.66518    -0.0879296      0.326798      -179.822        0.6616    -0.0878742
                    0.665212    -0.0879331        0.6616    -0.0878742       0.32683      -179.822
       13.1826      0.330411      -179.814       0.66518    -0.0920605      0.665211    -0.0920641
                     0.66518    -0.0920605      0.326799      -179.814      0.661599    -0.0920024
                    0.665211    -0.0920641      0.661599    -0.0920024      0.326831      -179.814
       13.8038      0.330412      -179.805      0.665179    -0.0963842      0.665211     -0.096388
                    0.665179    -0.0963842        0.3268      -179.805      0.661599    -0.0963234
                    0.665211     -0.096388      0.661599    -0.0963234      0.326832      -179.805
       14.4544      0.330413      -179.796      0.665179     -0.100911      0.665211     -0.100915
                    0.665179     -0.100911      0.326801      -179.796      0.661599     -0.100847
                    0.665211     -0.100915      0.661599     -0.100847      0.326833      -179.796
       15.1356      0.330414      -179.786      0.665178     -0.105649       0.66521     -0.105653
                    0.665178     -0.105649      0.326801      -179.786      0.661598     -0.105583
                     0.66521     -0.105653      0.661598     -0.105583      0.326833      -179.786
       15.8489      0.330414      -179.776      0.665178     -0.110609       0.66521     -0.110613
                    0.665178     -0.110609      0.326802      -179.776      0.661598     -0.110539
                     0.66521     -0.110613      0.661598     -0.110539      0.326834      -179.776
       16.5959      0.330415      -179.765      0.665177     -0.115801      0.665209     -0.115806
                    0.665177     -0.115801      0.326803      -179.766      0.661597     -0.115728
                    0.665209     -0.115806      0.661597     -0.115728      0.326835      -179.766
        17.378      0.330416      -179.754      0.665176     -0.121236      0.665208      -0.12124
                    0.665176     -0.121236      0.326804      -179.755      0.661596     -0.121159
                    0.665208      -0.12124      0.661596     -0.121159      0.326836      -179.755
        18.197      0.330417      -179.743      0.665176     -0.126924      0.665208     -0.126929
                    0.665176     -0.126924      0.326805      -179.743      0.661596     -0.126844
                    0.665208     -0.126929      0.661596     -0.126844      0.326837      -179.743
       19.0546      0.330419      -179.731      0.665175     -0.132879      0.665207     -0.132884
                    0.665175     -0.132879      0.326806      -179.731      0.661595     -0.132795
                    0.665207     -0.132884      0.661595     -0.132795      0.326838      -179.731
       19.9526       0.33042      -179.718      0.665174     -0.139112      0.665206     -0.139118
                    0.665174     -0.139112      0.326808      -179.719      0.661594     -0.139025
                    0.665206     -0.139118      0.661594     -0.139025       0.32684      -179.719
        20.893      0.330421      -179.705      0.665174     -0.145638      0.665206     -0.145644
