! Touchstone data
! Created: 22-Apr-2025 by IdEM 2023 (2023.0.0)
!
!*********************************************************
! COMMENTS
!*********************************************************
!
!  Touchstone file exported from Ansys Full-Wave Spice
!  Project: 0000_PSI_S-parameter_Sweep
!   Design: unknown
!  Creation time: Tue Apr 22 09:49:36 2025
!  Notes: ! Touchstone(R) file created by SIwave 2025 R1
!       : ! Touchstone(R) file created on Tue Apr 22 09:49:36 2025
! 
!  Modal data exported
!  Port[1] = PORT_5_L29_SOC_VNPU_Group_U43_GND_Group
!  Port[2] = PORT_6_U1_SOC_VNPU_Group_U1_GRP_1_1_GND
!  Port[3] = SOC_VNPU_C483_1
!  Port[4] = SOC_VNPU_C484_1
!  Port[5] = SOC_VNPU_C486_1
!  Port[6] = SOC_VNPU_C487_1
!  Port[7] = SOC_VNPU_C488_1
!  Port[8] = SOC_VNPU_C489_1
!  Port[9] = SOC_VNPU_C556_1
!  Port[10] = SOC_VNPU_C556_3
!  Port[11] = SOC_VNPU_C558_1
!  Port[12] = SOC_VNPU_C558_3
!  Port[13] = SOC_VNPU_C647_1
!
!*********************************************************
!
!
!---------------------------
! Options Used in IdEM Flow
!---------------------------
!
! Fitting Options !
!
! Bandwidth: 1.0000e+09 Hz
! Order: [2 2 6] 
! SplitType: none 
! tol: 1.0000e-03 
! DC Point: enforced 
!
!---------------------------
!
! Passivity Options !
!
! Alg: SOC+HAM 
!    Max SOC it: 200 
!    Max HAM it: 50 
! Freq sampling: adaptive
! DC Point: enforced
! Optimization method: Model based
!
!---------------------------
!

# Hz S MA R 0.1

!
                   0   0.8364631018425291                  180   0.1537051776068963                    0   0.1528174142891906                    0   0.1540737981542567                    0
  0.1543556601172538                    0   0.1527369488659572                    0   0.1530132601209749                    0   0.1528791631229144                    0
  0.1511889102032953                    0   0.1516752238915404                    0   0.1517556489087653                    0   0.1516421360545963                    0
  0.1566197593966662                    0
  0.1537051776068968                    0   0.8332697928481447                  180   0.1535763128054879                    0   0.1528104947165832                    0
  0.1526758211929124                    0   0.1537055549718294                    0   0.1529499751151654                    0   0.1531562284147124                    0
  0.1518345248645958                    0   0.1518057926430726                    0   0.1519316834243672                    0   0.1514417220127764                    0
  0.1536765039695219                    0
  0.1528174142891899                    0   0.1535763128054878                    0   0.8321803926773225                  180    0.152251171032749                    0
  0.1514717549234206                    0   0.1548454563144985                    0   0.1555519619143187                    0   0.1537173972133713                    0
  0.1535375775736234                    0    0.150944641708225                    0   0.1506180570526753                    0   0.1499242032954364                    0
  0.1529244434441019                    0
  0.1540737981542581                    0    0.152810494716583                    0   0.1522511710327487                    0    0.831057173489739                  180
  0.1533448848201347                    0   0.1519192903019439                    0   0.1526242687728482                    0   0.1521004063994049                    0
  0.1516220125092779                    0   0.1535549472062733                    0    0.152771983969109                    0   0.1509320987156011                    0
   0.153051815781332                    0
  0.1543556601172527                    0   0.1526758211929122                    0   0.1514717549234207                    0   0.1533448848201347                    0
  0.8276345814641438                  180   0.1512357058098587                    0   0.1514478239327274                    0   0.1512164834364876                    0
   0.150476028459686                    0   0.1512278715667917                    0   0.1523676694305469                    0   0.1551437162110005                    0
  0.1526711604530988                    0
  0.1527369488659572                    0   0.1537055549718295                    0   0.1548454563144993                    0   0.1519192903019428                    0
  0.1512357058098591                    0   0.8305074333273496                  180   0.1536930316338407                    0    0.157448421212123                    0
  0.1509592953543777                    0   0.1504303903335975                    0   0.1501618672369843                    0   0.1495802366994314                    0
  0.1537912334826834                    0
  0.1530132601209746                    0   0.1529499751151655                    0   0.1555519619143185                    0   0.1526242687728482                    0
  0.1514478239327277                    0   0.1536930316338406                    0   0.8301402564529815                  180   0.1544705545756767                    0
   0.152683819717011                    0   0.1505595878969437                    0   0.1502743517508883                    0   0.1496008400484833                    0
  0.1532707798638801                    0
  0.1528791631229144                    0   0.1531562284147122                    0   0.1537173972133712                    0   0.1521004063994059                    0
  0.1512164834364877                    0    0.157448421212123                    0   0.1544705545756766                    0   0.8294839877467011                  180
  0.1506559470369868                    0   0.1501960399163044                    0   0.1499449526134049                    0   0.1493717495640774                    0
  0.1543266431310151                    0
  0.1511889102032971                    0   0.1518345248645951                    0   0.1535375775736222                    0   0.1516220125092779                    0
  0.1504760284596856                    0   0.1509592953543783                    0    0.152683819717011                    0   0.1506559470369862                    0
  0.8276290230347269                  180   0.1642178909957389                    0   0.1499279554924273                    0   0.1492553747187549                    0
  0.1512696849987275                    0
  0.1516752238915384                    0   0.1518057926430725                    0   0.1509446417082254                    0    0.153554947206273                    0
   0.151227871566792                    0   0.1504303903335967                    0   0.1505595878969435                    0   0.1501960399163043                    0
  0.1642178909957389                    0   0.8292995565909111                  180   0.1535612656728769                    0    0.150156223767984                    0
  0.1509696798813399                    0
  0.1517556489087608                    0   0.1519316834243679                    0   0.1506180570526761                    0   0.1527719839691098                    0
  0.1523676694305479                    0    0.150161867236983                    0   0.1502743517508871                    0   0.1499449526134056                    0
  0.1499279554924285                    0   0.1535612656728761                    0   0.8290269193813214                  180    0.164674014879846                    0
  0.1510374678392082                    0
  0.1516421360545998                    0   0.1514417220127758                    0   0.1499242032954354                    0   0.1509320987156003                    0
  0.1551437162109999                    0   0.1495802366994326                    0   0.1496008400484841                    0   0.1493717495640767                    0
  0.1492553747187543                    0   0.1501562237679848                    0   0.1646740148798464                    0   0.8222144694727582                  180
  0.1504921523945448                    0
  0.1566197593966659                    0    0.153676503969522                    0   0.1529244434441011                    0   0.1530518157813331                    0
  0.1526711604530982                    0   0.1537912334826834                    0   0.1532707798638803                    0   0.1543266431310148                    0
  0.1512696849987289                    0   0.1509696798813388                    0   0.1510374678392055                    0   0.1504921523945474                    0
  0.8341013257463425                  180

!
                   1   0.8364631018425168    179.9999938586903    0.153705177606895 -2.856553211822753e-06   0.1528174142891893 -3.033667483004373e-06   0.1540737981542557 -2.336089477540905e-06
  0.1543556601172531 -1.798269911305259e-06   0.1527369488659559 -3.0688905771701e-06   0.1530132601209737 -2.747270348858406e-06   0.1528791631229131 -2.871789185077433e-06
  0.1511889102032937 -3.359889146031146e-06   0.1516752238915391 -3.189618897052112e-06    0.151755648908764 -3.122648627730325e-06   0.1516421360545951 -2.984345912648578e-06
  0.1566197593966646 -2.465101732411439e-06
  0.1537051776068955 -2.856553211822853e-06    0.833269792848142     179.999999045331    0.153576312805488 1.216899070533807e-07   0.1528104947165831 -2.029798293517882e-07
  0.1526758211929123 -2.658061650715412e-07   0.1537055549718295 1.571504856583165e-07   0.1529499751151654 -1.033712042777934e-07   0.1531562284147127 1.054597442699193e-07
  0.1518345248645958 -3.444148258727901e-08   0.1518057926430726 -2.15984440004847e-07   0.1519316834243672 -1.515048894121654e-07   0.1514417220127761 -6.028174119327694e-07
  0.1536765039695217 -4.662271827830982e-07
  0.1528174142891887 -3.033667483004254e-06   0.1535763128054878 1.216899070533999e-07   0.8321803926773212    179.9999992263897    0.152251171032749 -2.924544304363542e-07
  0.1514717549234204 -6.824028240844141e-07   0.1548454563144984 1.907777831094153e-07   0.1555519619143196 1.608394169874804e-06   0.1537173972133713  8.9694214378357e-08
  0.1535375775736237 1.671579020561676e-07   0.1509446417082251 -4.011538393306539e-07   0.1506180570526753 -5.490781051906198e-07   0.1499242032954357 -1.272569280110124e-06
  0.1529244434441018 -4.005216568509704e-07
  0.1540737981542571 -2.336089477541167e-06   0.1528104947165829 -2.029798293517479e-07   0.1522511710327487 -2.924544304362877e-07   0.8310571734897373    179.9999989908104
  0.1533448848201348  1.3047484116208e-07   0.1519192903019438 -4.626009870568806e-07   0.1526242687728481 -8.760081001088336e-08   0.1521004063994048 -3.465794014404954e-07
  0.1516220125092768 -1.240492374494156e-06   0.1535549472062738 4.39325861664733e-07   0.1527719839691089 -3.751966521713916e-07   0.1509320987156008 -7.469673855457578e-07
  0.1530518157813321 -1.047925605883955e-07
   0.154355660117252 -1.798269911305041e-06   0.1526758211929121 -2.658061650715179e-07   0.1514717549234205 -6.824028240844381e-07   0.1533448848201348 1.304748411620859e-07
  0.8276345814641421    179.9999989834293   0.1512357058098584 -7.616292694422293e-07   0.1514478239327272 -5.82824846610094e-07   0.1512164834364874 -7.038914443713053e-07
  0.1504760284596855 -9.20500954318174e-07   0.1512278715667916 -5.619624596446993e-07   0.1523676694305468 -3.53271833443702e-07   0.1551437162110018 1.560987830960463e-06
  0.1526711604530984 -7.587272530477213e-07
   0.152736948865956 -3.068890577170127e-06   0.1537055549718296 1.571504856582889e-07   0.1548454563144992 1.907777831092725e-07   0.1519192903019426 -4.626009870566429e-07
  0.1512357058098588 -7.616292694422965e-07   0.8305074333273479    179.9999991316263   0.1536930316338408 7.901190276508665e-08   0.1574484212121243 2.143760416992458e-06
  0.1509592953543772 -6.631471290008371e-07   0.1504303903335974 -6.504732941671589e-07   0.1501618672369841 -7.488712836105557e-07    0.149580236699431 -1.18315700171452e-06
  0.1537912334826836 -4.201838999162854e-08
  0.1530132601209735 -2.747270348858359e-06   0.1529499751151655 -1.033712042778108e-07   0.1555519619143194 1.608394169874832e-06   0.1526242687728481 -8.760081001088395e-08
  0.1514478239327275 -5.828248466101341e-07   0.1536930316338407 7.901190276510843e-08   0.8301402564529807    179.9999992549189   0.1544705545756765 8.362458588104062e-08
  0.1526838197170114 -1.28772137533152e-08   0.1505595878969438 -5.299907581339489e-07   0.1502743517508881 -7.020609241710999e-07   0.1496008400484827 -1.314801932878679e-06
  0.1532707798638802 2.046336182907519e-08
  0.1528791631229132 -2.871789185077459e-06   0.1531562284147125 1.054597442699667e-07   0.1537173972133713 8.969421437836195e-08   0.1521004063994059 -3.465794014406983e-07
  0.1512164834364875 -7.038914443713211e-07   0.1574484212121244 2.14376041699247e-06   0.1544705545756764 8.362458588107082e-08   0.8294839877467001    179.9999991986575
  0.1506559470369863 -8.14730982476539e-07   0.1501960399163043 -7.299308460589135e-07   0.1499449526134047 -8.472197687194196e-07    0.149371749564077 -1.246978944698735e-06
  0.1543266431310156 4.857390423808776e-07
  0.1511889102032955 -3.359889146031474e-06   0.1518345248645951 -3.444148258715246e-08   0.1535375775736225 1.671579020564003e-07   0.1516220125092768 -1.240492374494161e-06
  0.1504760284596852 -9.205009543181008e-07   0.1509592953543778 -6.631471290009612e-07   0.1526838197170113 -1.287721375330865e-08   0.1506559470369858 -8.147309824764328e-07
  0.8276290230347186    179.9999977480763   0.1642178909957351 -2.759521411961671e-06   0.1499279554924271 -5.959132869087123e-07   0.1492553747187544 -1.063312739460727e-06
  0.1512696849987271 -9.627131259821925e-07
  0.1516752238915371 -3.189618897051729e-06   0.1518057926430724 -2.159844400048054e-07   0.1509446417082254 -4.011538393307396e-07   0.1535549472062736 4.393258616647974e-07
  0.1512278715667919 -5.619624596447603e-07   0.1504303903335965 -6.504732941669936e-07   0.1505595878969435 -5.299907581338955e-07   0.1501960399163042 -7.299308460588961e-07
  0.1642178909957351 -2.759521411961674e-06   0.8292995565909056    179.9999981030795    0.153561265672877 5.160987676005702e-09   0.1501562237679837 -7.268951993535723e-07
  0.1509696798813395 -1.04648799709436e-06
  0.1517556489087594 -3.122648627729473e-06   0.1519316834243679 -1.515048894123023e-07   0.1506180570526761 -5.490781051907923e-07   0.1527719839691097 -3.751966521715556e-07
  0.1523676694305477 -3.532718334438548e-07   0.1501618672369829 -7.488712836102957e-07    0.150274351750887 -7.020609241708725e-07   0.1499449526134054 -8.472197687195678e-07
  0.1499279554924282 -5.959132869089469e-07   0.1535612656728763 5.160987676168377e-09   0.8290269193813161     179.999998137996   0.1646740148798432 -1.724359799101584e-06
   0.151037467839208 -1.056004207528661e-06
  0.1516421360545986 -2.98434591264924e-06   0.1514417220127754 -6.028174119326385e-07   0.1499242032954347 -1.272569280109907e-06      0.1509320987156 -7.469673855455991e-07
  0.1551437162110012 1.560987830960604e-06   0.1495802366994321 -1.183157001714749e-06   0.1496008400484835 -1.31480193287884e-06   0.1493717495640762 -1.24697894469859e-06
  0.1492553747187539 -1.063312739460619e-06   0.1501562237679846 -7.268951993537484e-07   0.1646740148798436 -1.724359799101653e-06   0.8222144694727511    179.9999976464416
  0.1504921523945439 -1.648561334153469e-06
  0.1566197593966643 -2.465101732411383e-06   0.1536765039695218 -4.662271827831254e-07   0.1529244434441009 -4.005216568507917e-07   0.1530518157813332 -1.047925605886219e-07
  0.1526711604530979 -7.587272530476095e-07   0.1537912334826836 -4.201838999165711e-08   0.1532707798638804 2.046336182905391e-08   0.1543266431310153 4.85739042380934e-07
  0.1512696849987284 -9.627131259824716e-07   0.1509696798813384 -1.046487997094137e-06   0.1510374678392052 -1.056004207528108e-06   0.1504921523945465 -1.648561334153986e-06
  0.8341013257463393    179.9999984829327

!
             1.16591   0.8364631018425124    179.9999928397856   0.1537051776068945 -3.330483955196176e-06   0.1528174142891888 -3.536983255109539e-06   0.1540737981542553 -2.723670082759647e-06
  0.1543556601172529 -2.096620872289868e-06   0.1527369488659554 -3.578050212828301e-06   0.1530132601209733 -3.203069972437425e-06   0.1528791631229127 -3.348247728773546e-06
  0.1511889102032932 -3.917328354249064e-06   0.1516752238915386 -3.718808568261936e-06   0.1517556489087636 -3.64072726155697e-06   0.1516421360545947 -3.47947874301602e-06
  0.1566197593966639 -2.874086760835703e-06
   0.153705177606895 -3.330483955196291e-06   0.8332697928481411    179.9999988869419    0.153576312805488 1.418794795326038e-07   0.1528104947165831 -2.366562128395401e-07
  0.1526758211929122 -3.09906065918553e-07   0.1537055549718295 1.832233227338828e-07   0.1529499751151655 -1.205215207795249e-07   0.1531562284147128 1.229565704417228e-07
  0.1518345248645958 -4.015566896333438e-08   0.1518057926430726 -2.518184184460462e-07   0.1519316834243672 -1.766410656145388e-07   0.1514417220127759 -7.028308487465062e-07
  0.1536765039695216 -5.435789346786274e-07
  0.1528174142891882 -3.536983255109399e-06   0.1535763128054878 1.418794795326261e-07   0.8321803926773208      179.99999909804    0.152251171032749 -3.409755449900476e-07
  0.1514717549234203 -7.956202766282411e-07   0.1548454563144984 2.224297251051086e-07   0.1555519619143199 1.875242846598678e-06   0.1537173972133714 1.045753814858654e-07
  0.1535375775736238 1.948910695862832e-07   0.1509446417082251 -4.677092728140072e-07   0.1506180570526753 -6.401756536227962e-07   0.1499242032954355 -1.483701249373142e-06
  0.1529244434441018 -4.669722049391046e-07
  0.1540737981542567 -2.723670082759953e-06   0.1528104947165829 -2.36656212839493e-07   0.1522511710327487 -3.409755449899702e-07   0.8310571734897365    179.9999988233757
  0.1533448848201348 1.521219220592748e-07   0.1519192903019438 -5.393511168194781e-07   0.1526242687728481 -1.021346603997861e-07   0.1521004063994048 -4.040803899334793e-07
  0.1516220125092764 -1.446302464346395e-06    0.153554947206274 5.12214415373488e-07   0.1527719839691089 -4.37445528733143e-07   0.1509320987156007 -8.708967444816341e-07
  0.1530518157813321 -1.221786943156201e-07
  0.1543556601172517 -2.096620872289614e-06   0.1526758211929121 -3.099060659185257e-07   0.1514717549234204 -7.95620276628269e-07   0.1533448848201348 1.521219220592817e-07
  0.8276345814641418      179.99999881477   0.1512357058098584 -8.879911815353699e-07   0.1514478239327272 -6.79521316911162e-07   0.1512164834364873 -8.206740739069326e-07
  0.1504760284596854 -1.073221267649066e-06   0.1512278715667915 -6.551976513243401e-07   0.1523676694305467 -4.118831633303338e-07   0.1551437162110023 1.819971321995017e-06
  0.1526711604530983 -8.846076916008418e-07
  0.1527369488659555 -3.578050212828333e-06   0.1537055549718296 1.832233227338506e-07   0.1548454563144991 2.224297251049419e-07   0.1519192903019426 -5.393511168192011e-07
  0.1512357058098588 -8.879911815354485e-07   0.8305074333273474    179.9999989875544   0.1536930316338408 9.212076755283766e-08   0.1574484212121248 2.49943170777559e-06
  0.1509592953543771 -7.731698691733284e-07   0.1504303903335973 -7.583933184024246e-07   0.1501618672369841 -8.731165182743734e-07   0.1495802366994308 -1.379454579868941e-06
  0.1537912334826836 -4.898966107515235e-08
  0.1530132601209731 -3.203069972437372e-06   0.1529499751151656 -1.205215207795451e-07   0.1555519619143196 1.875242846598712e-06   0.1526242687728481 -1.021346603997869e-07
  0.1514478239327274 -6.795213169112088e-07   0.1536930316338407 9.212076755286302e-08   0.8301402564529805    179.9999991313025   0.1544705545756764 9.749874092458244e-08
  0.1526838197170115 -1.501367228715306e-08   0.1505595878969438 -6.179215248159548e-07   0.1502743517508881 -8.185398521003216e-07   0.1496008400484825 -1.532940721562531e-06
  0.1532707798638803 2.385843819013151e-08
