! Touchstone file exported from Ansys Full-Wave Spice
! Project: 0001_PSI_S-parameter_Sweep
!  Design: unknown
! Creation time: Thu Apr 17 16:39:10 2025
! Notes: ! Touchstone(R) file created by SIwave 2025 R1
!      : ! Touchstone(R) file created on Thu Apr 17 16:39:10 2025

# HZ S RI R 0.1
! Modal data exported
! Port[1] = PORT_1_DIE1_VDDCR_GFX_Group_DIE1_VSS_Group
! Port[2] = PORT_2_BGA1_VDDCR_GFX_Group_BGA1_VSS_Group
! Port[3] = VDDCR_GFX_C8_2
! Port[4] = VDDCR_GFX_C12_2
! Port[5] = VDDCR_GFX_C42_2
! Port[6] = VDDCR_GFX_C43_2
! Port[7] = VDDCR_GFX_C44_1
! Port[8] = VDDCR_GFX_C45_2
! Port[9] = VDDCR_GFX_C46_1
! Port[10] = VDDCR_GFX_C47_2
! Port[11] = VDDCR_GFX_C92_1
! Port[12] = VDDCR_GFX_C128_2

0.0000000000000000e+00 -8.2178506314355237e-01 0.0000000000000000e+00 1.7549578673261140e-01 0.0000000000000000e+00 1.6318404945954271e-01 0.0000000000000000e+00 1.6780414281776715e-01 0.0000000000000000e+00 
                       1.6050315280838873e-01 0.0000000000000000e+00 1.6706033764874315e-01 0.0000000000000000e+00 1.6541095278360934e-01 0.0000000000000000e+00 1.6614111264803400e-01 0.0000000000000000e+00 
                       1.6671917388354399e-01 0.0000000000000000e+00 1.6720089837345806e-01 0.0000000000000000e+00 1.5726048379381058e-01 0.0000000000000000e+00 1.6500497219386026e-01 0.0000000000000000e+00 
                       1.7549578673261140e-01 0.0000000000000000e+00 -8.0004969485070787e-01 0.0000000000000000e+00 1.6104342732195454e-01 0.0000000000000000e+00 1.6554115953476245e-01 0.0000000000000000e+00 
                       1.5840229324860283e-01 0.0000000000000000e+00 1.6482213545471391e-01 0.0000000000000000e+00 1.6325472356270754e-01 0.0000000000000000e+00 1.6398906577408764e-01 0.0000000000000000e+00 
                       1.6451006709146512e-01 0.0000000000000000e+00 1.6498723514016955e-01 0.0000000000000000e+00 1.5510939930801987e-01 0.0000000000000000e+00 1.6289440168142838e-01 0.0000000000000000e+00 
                       1.6318404945954271e-01 0.0000000000000000e+00 1.6104342732195454e-01 0.0000000000000000e+00 -7.5350293172136096e-01 0.0000000000000000e+00 1.7384341082293164e-01 0.0000000000000000e+00 
                       1.6011970090792482e-01 0.0000000000000000e+00 1.6479260541033575e-01 0.0000000000000000e+00 1.5726597705641818e-01 0.0000000000000000e+00 1.5690192258012731e-01 0.0000000000000000e+00 
                       1.5817742422658948e-01 0.0000000000000000e+00 1.5759113045375978e-01 0.0000000000000000e+00 1.4555886787378461e-01 0.0000000000000000e+00 1.5502441560780875e-01 0.0000000000000000e+00 
                       1.6780414281776715e-01 0.0000000000000000e+00 1.6554115953476245e-01 0.0000000000000000e+00 1.7384341082293164e-01 0.0000000000000000e+00 -7.9283480035223519e-01 0.0000000000000000e+00 
                       1.6231651456481702e-01 0.0000000000000000e+00 1.6914568188105461e-01 0.0000000000000000e+00 1.6109471498692807e-01 0.0000000000000000e+00 1.6073076240245887e-01 0.0000000000000000e+00 
                       1.6244486217806842e-01 0.0000000000000000e+00 1.6156930855031790e-01 0.0000000000000000e+00 1.4947182942973974e-01 0.0000000000000000e+00 1.5887241318320489e-01 0.0000000000000000e+00 
                       1.6050315280838873e-01 0.0000000000000000e+00 1.5840229324860283e-01 0.0000000000000000e+00 1.6011970090792482e-01 0.0000000000000000e+00 1.6231651456481702e-01 0.0000000000000000e+00 
                       -7.3671808628653079e-01 0.0000000000000000e+00 1.6692212145981936e-01 0.0000000000000000e+00 1.5915602724779276e-01 0.0000000000000000e+00 1.5653984843236854e-01 0.0000000000000000e+00 
                       1.5864535851289419e-01 0.0000000000000000e+00 1.5694728791819645e-01 0.0000000000000000e+00 1.4306158560347843e-01 0.0000000000000000e+00 1.5410419558206273e-01 0.0000000000000000e+00 
                       1.6706033764874315e-01 0.0000000000000000e+00 1.6482213545471391e-01 0.0000000000000000e+00 1.6479260541033575e-01 0.0000000000000000e+00 1.6914568188105461e-01 0.0000000000000000e+00 
                       1.6692212145981936e-01 0.0000000000000000e+00 -7.9544912355838926e-01 0.0000000000000000e+00 1.6349785281160528e-01 0.0000000000000000e+00 1.6194384271929452e-01 0.0000000000000000e+00 
                       1.6614461261523339e-01 0.0000000000000000e+00 1.6275710288456352e-01 0.0000000000000000e+00 1.4874455233314260e-01 0.0000000000000000e+00 1.5961827833969883e-01 0.0000000000000000e+00 
                       1.6541095278360934e-01 0.0000000000000000e+00 1.6325472356270754e-01 0.0000000000000000e+00 1.5726597705641818e-01 0.0000000000000000e+00 1.6109471498692807e-01 0.0000000000000000e+00 
                       1.5915602724779276e-01 0.0000000000000000e+00 1.6349785281160528e-01 0.0000000000000000e+00 -7.9687807168877267e-01 0.0000000000000000e+00 1.7105023826653915e-01 0.0000000000000000e+00 
                       1.7258042312370603e-01 0.0000000000000000e+00 1.6899576915850900e-01 0.0000000000000000e+00 1.4871031873780699e-01 0.0000000000000000e+00 1.6586107395296681e-01 0.0000000000000000e+00 
                       1.6614111264803400e-01 0.0000000000000000e+00 1.6398906577408764e-01 0.0000000000000000e+00 1.5690192258012731e-01 0.0000000000000000e+00 1.6073076240245887e-01 0.0000000000000000e+00 
                       1.5653984843236854e-01 0.0000000000000000e+00 1.6194384271929452e-01 0.0000000000000000e+00 1.7105023826653915e-01 0.0000000000000000e+00 -7.9733731170780198e-01 0.0000000000000000e+00 
                       1.6861076781223291e-01 0.0000000000000000e+00 1.7243752384480004e-01 0.0000000000000000e+00 1.4955913251096692e-01 0.0000000000000000e+00 1.6943309471670767e-01 0.0000000000000000e+00 
                       1.6671917388354399e-01 0.0000000000000000e+00 1.6451006709146512e-01 0.0000000000000000e+00 1.5817742422658948e-01 0.0000000000000000e+00 1.6244486217806842e-01 0.0000000000000000e+00 
                       1.5864535851289419e-01 0.0000000000000000e+00 1.6614461261523339e-01 0.0000000000000000e+00 1.7258042312370603e-01 0.0000000000000000e+00 1.6861076781223291e-01 0.0000000000000000e+00 
                       -8.0160316201776072e-01 0.0000000000000000e+00 1.6962570498601473e-01 0.0000000000000000e+00 1.4939332834812677e-01 0.0000000000000000e+00 1.6475143923970170e-01 0.0000000000000000e+00 
                       1.6720089837345806e-01 0.0000000000000000e+00 1.6498723514016955e-01 0.0000000000000000e+00 1.5759113045375978e-01 0.0000000000000000e+00 1.6156930855031790e-01 0.0000000000000000e+00 
                       1.5694728791819645e-01 0.0000000000000000e+00 1.6275710288456352e-01 0.0000000000000000e+00 1.6899576915850900e-01 0.0000000000000000e+00 1.7243752384480004e-01 0.0000000000000000e+00 
                       1.6962570498601473e-01 0.0000000000000000e+00 -7.9920667203615858e-01 0.0000000000000000e+00 1.4990010759772876e-01 0.0000000000000000e+00 1.6719460312845685e-01 0.0000000000000000e+00 
                       1.5726048379381058e-01 0.0000000000000000e+00 1.5510939930801987e-01 0.0000000000000000e+00 1.4555886787378461e-01 0.0000000000000000e+00 1.4947182942973974e-01 0.0000000000000000e+00 
                       1.4306158560347843e-01 0.0000000000000000e+00 1.4874455233314260e-01 0.0000000000000000e+00 1.4871031873780699e-01 0.0000000000000000e+00 1.4955913251096692e-01 0.0000000000000000e+00 
                       1.4939332834812677e-01 0.0000000000000000e+00 1.4990010759772876e-01 0.0000000000000000e+00 -6.4834489958668184e-01 0.0000000000000000e+00 1.5157529404989145e-01 0.0000000000000000e+00 
                       1.6500497219386026e-01 0.0000000000000000e+00 1.6289440168142838e-01 0.0000000000000000e+00 1.5502441560780875e-01 0.0000000000000000e+00 1.5887241318320489e-01 0.0000000000000000e+00 
                       1.5410419558206273e-01 0.0000000000000000e+00 1.5961827833969883e-01 0.0000000000000000e+00 1.6586107395296681e-01 0.0000000000000000e+00 1.6943309471670767e-01 0.0000000000000000e+00 
                       1.6475143923970170e-01 0.0000000000000000e+00 1.6719460312845685e-01 0.0000000000000000e+00 1.5157529404989145e-01 0.0000000000000000e+00 -7.7433418167597279e-01 0.0000000000000000e+00 

1.0000000000000000e+00 -8.2176585953877224e-01 2.0020082826364736e-09 1.7550982484177208e-01 8.7882491995972713e-10 1.6318996857362772e-01 -5.7494643210628885e-10 1.6781588037296849e-01 -2.0430074948933306e-10 
                       1.6051195734473470e-01 -4.5778815039319385e-10 1.6706713334098403e-01 -1.8510916788240297e-10 1.6541157146731961e-01 3.1587592242137186e-10 1.6615179557006726e-01 -1.5273267940079791e-10 
                       1.6672140338058711e-01 -2.5070391172445467e-11 1.6721198409404073e-01 -4.5822890672620265e-11 1.5727093071613138e-01 -1.2345354815109813e-09 1.6501513641838650e-01 -3.9517771533411203e-10 
                       1.7550982484177208e-01 8.7882491995972713e-10 -8.0004139309625921e-01 7.5141346123060820e-09 1.6104476067412832e-01 -9.1955775102501718e-10 1.6554810940191816e-01 -8.7240910124984924e-10 
                       1.5840654803186921e-01 -6.9048439360682572e-10 1.6482422959440571e-01 -8.4833295689236398e-10 1.6325076390322724e-01 -2.7464409621567916e-10 1.6399501798322427e-01 -7.7221162544857536e-10 
                       1.6450766329540017e-01 -7.0519700048581918e-10 1.6499355680138045e-01 -7.4100903773011752e-10 1.5511536948327745e-01 -1.6765360123847219e-09 1.6289987220240185e-01 -9.7915618524761695e-10 
                       1.6318996857362772e-01 -5.7494643210628885e-10 1.6104476067412832e-01 -9.1955775102501718e-10 -7.5351281388233649e-01 1.0769285908680654e-08 1.7384202289967254e-01 2.5784780667171541e-10 
                       1.6011631068843524e-01 -1.3936311608948991e-09 1.6478679644308403e-01 -3.8554531810477414e-10 1.5725483665620626e-01 -7.1129247725760326e-10 1.5690034847632162e-01 -1.3134368978845499e-09 
                       1.5816774282506646e-01 -1.1499529592320572e-09 1.5758988045434197e-01 -1.2953521822402750e-09 1.4555796649549904e-01 -1.8750352616127017e-09 1.5502248863891110e-01 -1.4054487504133454e-09 
                       1.6781588037296849e-01 -2.0430074948933306e-10 1.6554810940191816e-01 -8.7240910124984924e-10 1.7384202289967254e-01 2.5784780667171541e-10 -7.9283034810066666e-01 6.5569394958337478e-09 
                       1.6231856804910147e-01 -7.3389428512444167e-10 1.6914541388647980e-01 -2.9791496397854066e-11 1.6108874813465501e-01 -5.9376192103492216e-11 1.6073458795922402e-01 -8.0478312012634318e-10 
                       1.6244040488035338e-01 -6.3915440935957962e-10 1.6157349050942973e-01 -8.4023344525188192e-10 1.4947595172461536e-01 -1.8233030334802873e-09 1.5887581480518997e-01 -8.4239667481367972e-10 
                       1.6051195734473470e-01 -4.5778815039319385e-10 1.5840654803186921e-01 -6.9048439360682572e-10 1.6011631068843524e-01 -1.3936311608948991e-09 1.6231856804910147e-01 -7.3389428512444167e-10 
                       -7.3671935053412341e-01 1.0165018957130784e-08 1.6691932909584872e-01 3.6460002805295879e-11 1.5914757816789385e-01 -6.9553255662423932e-10 1.5654105453756961e-01 -1.1609143267670112e-09 
                       1.5863846232932960e-01 -8.2329514586314728e-10 1.5694883550421099e-01 -1.1682395093329766e-09 1.4306335370160364e-01 -1.6827979972987303e-09 1.5410502816215724e-01 -1.4299270462038214e-09 
                       1.6706713334098403e-01 -1.8510916788240297e-10 1.6482422959440571e-01 -8.4833295689236398e-10 1.6478679644308403e-01 -3.8554531810477414e-10 1.6914541388647980e-01 -2.9791496397854066e-11 
                       1.6691932909584872e-01 3.6460002805295879e-11 -7.9545525882878920e-01 6.7749758114681495e-09 1.6348686764916873e-01 -2.4070266122364463e-10 1.6194282291965437e-01 -8.9688260618231100e-10 
                       1.6613503978845473e-01 -4.5348854014673312e-10 1.6275641923395695e-01 -8.3725311878093639e-10 1.4874429362695843e-01 -1.8055347223360838e-09 1.5961690740493600e-01 -1.1211364215692087e-09 
                       1.6541157146731961e-01 3.1587592242137186e-10 1.6325076390322724e-01 -2.7464409621567916e-10 1.5725483665620626e-01 -7.1129247725760326e-10 1.6108874813465501e-01 -5.9376192103492216e-11 
                       1.5914757816789385e-01 -6.9553255662423932e-10 1.6348686764916873e-01 -2.4070266122364463e-10 -7.9689745412177304e-01 3.8315519377439687e-09 1.7104267317764751e-01 -4.3173555348927719e-10 
                       1.7256402635952589e-01 6.1356186662890188e-10 1.6898863079965937e-01 -2.8583334456720085e-10 1.4870448282052437e-01 -1.3813564730429833e-09 1.6585331119754360e-01 -5.9203779839729380e-10 
                       1.6615179557006726e-01 -1.5273267940079791e-10 1.6399501798322427e-01 -7.7221162544857536e-10 1.5690034847632162e-01 -1.3134368978845499e-09 1.6073458795922402e-01 -8.0478312012634318e-10 
                       1.5654105453756961e-01 -1.1609143267670112e-09 1.6194282291965437e-01 -8.9688260618231100e-10 1.7104267317764751e-01 -4.3173555348927719e-10 -7.9733443726352915e-01 6.5627342596518753e-09 
                       1.6860492310687131e-01 -1.3451802430667113e-10 1.7244062761505891e-01 5.5461359026938468e-10 1.4956230299205003e-01 -1.9288618324909059e-09 1.6943534045795966e-01 4.2801039560376560e-10 
                       1.6672140338058711e-01 -2.5070391172445467e-11 1.6450766329540017e-01 -7.0519700048581918e-10 1.5816774282506646e-01 -1.1499529592320572e-09 1.6244040488035338e-01 -6.3915440935957962e-10 
                       1.5863846232932960e-01 -8.2329514586314728e-10 1.6613503978845473e-01 -4.5348854014673312e-10 1.7256402635952589e-01 6.1356186662890188e-10 1.6860492310687131e-01 -1.3451802430667113e-10 
                       -8.0161888629719136e-01 5.7875655949207991e-09 1.6962018147790023e-01 -1.1286675495091631e-11 1.4938892441464574e-01 -1.7849619670210851e-09 1.6474533239904468e-01 -6.0015741428675926e-10 
                       1.6721198409404073e-01 -4.5822890672620265e-11 1.6499355680138045e-01 -7.4100903773011752e-10 1.5758988045434197e-01 -1.2953521822402750e-09 1.6157349050942973e-01 -8.4023344525188192e-10 
                       1.5694883550421099e-01 -1.1682395093329766e-09 1.6275641923395695e-01 -8.3725311878093639e-10 1.6898863079965937e-01 -2.8583334456720085e-10 1.7244062761505891e-01 5.5461359026938468e-10 
                       1.6962018147790023e-01 -1.1286675495091631e-11 -7.9920320009907564e-01 6.6609304405633302e-09 1.4990361760824147e-01 -1.9655824427980504e-09 1.6719720650983527e-01 -7.2157432637429623e-11 
                       1.5727093071613138e-01 -1.2345354815109813e-09 1.5511536948327745e-01 -1.6765360123847219e-09 1.4555796649549904e-01 -1.8750352616127017e-09 1.4947595172461536e-01 -1.8233030334802873e-09 
                       1.4306335370160364e-01 -1.6827979972987303e-09 1.4874429362695843e-01 -1.8055347223360838e-09 1.4870448282052437e-01 -1.3813564730429833e-09 1.4956230299205003e-01 -1.9288618324909059e-09 
                       1.4938892441464574e-01 -1.7849619670210851e-09 1.4990361760824147e-01 -1.9655824427980504e-09 -6.4834814369543814e-01 1.9082861963082739e-08 1.5157791913933460e-01 -1.9597172227919541e-09 
                       1.6501513641838650e-01 -3.9517771533411203e-10 1.6289987220240185e-01 -9.7915618524761695e-10 1.5502248863891110e-01 -1.4054487504133454e-09 1.5887581480518997e-01 -8.4239667481367972e-10 
                       1.5410502816215724e-01 -1.4299270462038214e-09 1.5961690740493600e-01 -1.1211364215692087e-09 1.6585331119754360e-01 -5.9203779839729380e-10 1.6943534045795966e-01 4.2801039560376560e-10 
                       1.6474533239904468e-01 -6.0015741428675926e-10 1.6719720650983527e-01 -7.2157432637429623e-11 1.5157791913933460e-01 -1.9597172227919541e-09 -7.7433289149033513e-01 8.9371231058144614e-09 

1.1659100000000000e+00 -8.2176585953877401e-01 2.3341614668230196e-09 1.7550982484177033e-01 1.0246307525796627e-09 1.6318996857362672e-01 -6.7033580498574665e-10 1.6781588037296696e-01 -2.3819629907163030e-10 
                       1.6051195734473356e-01 -5.3373979236221106e-10 1.6706713334098228e-01 -2.1582064000398550e-10 1.6541157146731800e-01 3.6828288711140480e-10 1.6615179557006560e-01 -1.7807256781186208e-10 
                       1.6672140338058528e-01 -2.9229829446314021e-11 1.6721198409403903e-01 -5.3425376085170041e-11 1.5727093071612980e-01 -1.4393572721428088e-09 1.6501513641838489e-01 -4.6074165954476296e-10 
                       1.7550982484177033e-01 1.0246307525796627e-09 -8.0004139309626110e-01 8.7608046761173109e-09 1.6104476067412749e-01 -1.0721215876892458e-09 1.6554810940191675e-01 -1.0171505073084312e-09 
                       1.5840654803186816e-01 -8.0504266914776703e-10 1.6482422959440407e-01 -9.8907988771299097e-10 1.6325076390322568e-01 -3.2021030768808851e-10 1.6399501798322269e-01 -9.0032926566860209e-10 
                       1.6450766329539834e-01 -8.2219624438073996e-10 1.6499355680137889e-01 -8.6394985667120673e-10 1.5511536948327592e-01 -1.9546901109740435e-09 1.6289987220240032e-01 -1.1416079972724947e-09 
                       1.6318996857362672e-01 -6.7033580498574665e-10 1.6104476067412749e-01 -1.0721215876892458e-09 -7.5351281388233893e-01 1.2556018123126154e-08 1.7384202289967177e-01 3.0062732369949630e-10 
                       1.6011631068843474e-01 -1.6248485173153546e-09 1.6478679644308314e-01 -4.4951115226781696e-10 1.5725483665620535e-01 -8.2930302210177146e-10 1.5690034847632062e-01 -1.5313492235185053e-09 
                       1.5816774282506532e-01 -1.3407416647134336e-09 1.5758988045434091e-01 -1.5102640727461199e-09 1.4555796649549818e-01 -2.1861223710661253e-09 1.5502248863891022e-01 -1.6386267623836713e-09 
                       1.6781588037296696e-01 -2.3819629907163030e-10 1.6554810940191675e-01 -1.0171505073084312e-09 1.7384202289967177e-01 3.0062732369949630e-10 -7.9283034810066866e-01 7.6448013130573515e-09 
                       1.6231856804910028e-01 -8.5565469952497777e-10 1.6914541388647811e-01 -3.4734215978309201e-11 1.6108874813465349e-01 -6.9227307961393516e-11 1.6073458795922246e-01 -9.3830469934860210e-10 
                       1.6244040488035166e-01 -7.4519652931057507e-10 1.6157349050942815e-01 -9.7963658797388359e-10 1.4947595172461395e-01 -2.1258072506643196e-09 1.5887581480518864e-01 -9.8215871875000843e-10 
                       1.6051195734473356e-01 -5.3373979236221106e-10 1.5840654803186816e-01 -8.0504266914776703e-10 1.6011631068843474e-01 -1.6248485173153546e-09 1.6231856804910028e-01 -8.5565469952497777e-10 
                       -7.3671935053412740e-01 1.1851497246570868e-08 1.6691932909584750e-01 4.2509072036505727e-11 1.5914757816789257e-01 -8.1092837245134291e-10 1.5654105453756850e-01 -1.3535216321444626e-09 
                       1.5863846232932827e-01 -9.5988805301806512e-10 1.5694883550421021e-01 -1.3620621358068107e-09 1.4306335370160281e-01 -1.9619910218822658e-09 1.5410502816215632e-01 -1.6671662517725357e-09 
                       1.6706713334098228e-01 -2.1582064000398550e-10 1.6482422959440407e-01 -9.8907988771299097e-10 1.6478679644308314e-01 -4.4951115226781696e-10 1.6914541388647811e-01 -3.4734215978309201e-11 
                       1.6691932909584750e-01 4.2509072036505727e-11 -7.9545525882879131e-01 7.8990120381887904e-09 1.6348686764916698e-01 -2.8063764942532832e-10 1.6194282291965281e-01 -1.0456844090261132e-09 
                       1.6613503978845293e-01 -5.2872683360076377e-10 1.6275641923395537e-01 -9.7616179342384322e-10 1.4874429362695710e-01 -2.1050909970941332e-09 1.5961690740493456e-01 -1.3071441748149545e-09 
                       1.6541157146731800e-01 3.6828288711140480e-10 1.6325076390322568e-01 -3.2021030768808851e-10 1.5725483665620535e-01 -8.2930302210177146e-10 1.6108874813465349e-01 -6.9227307961393516e-11 
