! Touchstone data
! Created: 18-Apr-2025 by IdEM 2023 (2023.0.0)
!
!*********************************************************
! COMMENTS
!*********************************************************
!
!  Touchstone file exported from Ansys Full-Wave Spice
!  Project: 0000_PSI_S-parameter_Sweep
!   Design: unknown
!  Creation time: Fri Apr 18 11:24:56 2025
!  Notes: ! Touchstone(R) file created by SIwave 2025 R1
!       : ! Touchstone(R) file created on Fri Apr 18 11:24:56 2025
! 
!  Modal data exported
!  Port[1] = PORT_1_DIE1_VDDCR_ECCX02_Group_DIE1_GRP_1_0_VSS
!  Port[2] = PORT_2_BGA1_VDDCR_ECCX02_Group_BGA1_GRP_1_1_VSS
!  Port[3] = VDDCR_ECCX02_C16_1
!  Port[4] = VDDCR_ECCX02_C17_1
!  Port[5] = VDDCR_ECCX02_C23_1
!  Port[6] = VDDCR_ECCX02_C24_1
!  Port[7] = VDDCR_ECCX02_C62_1
!  Port[8] = VDDCR_ECCX02_C98_1
!  Port[9] = VDDCR_ECCX02_C99_1
!  Port[10] = VDDCR_ECCX02_C109_1
!
!*********************************************************
!
!
!---------------------------
! Options Used in IdEM Flow
!---------------------------
!
! Fitting Options !
!
! Bandwidth: 1.0000e+09 Hz
! Order: [2 2 4] 
! SplitType: none 
! tol: 1.0000e-03 
! DC Point: enforced 
!
!---------------------------
!
! Passivity Options !
!
! Alg: SOC+HAM 
!    Max SOC it: 200 
!    Max HAM it: 50 
! Freq sampling: adaptive
! DC Point: enforced
! Optimization method: Model based
!
!---------------------------
!

# Hz S MA R 0.1

!
                   0   0.7792250874519295                  180   0.2141993645912786                    0   0.1956720235277665                    0   0.1934600777031503                    0
  0.1918301466614927                    0   0.1932943207983643                    0   0.2040480126686793                    0   0.1960114367928257                    0
   0.199337416547977                    0   0.1913722870501684                    0
  0.2141993645912786                    0   0.7479490050539794                  180   0.1917451006683849                    0   0.1896386818778072                    0
  0.1880730809009075                    0   0.1894570455358975                    0   0.1998328360009344                    0    0.192104891697351                    0
  0.1953106027020685                    0    0.187587399969123                    0
  0.1956720235277664                    0   0.1917451006683851                    0   0.7774695074184184                  180   0.1991707971882549                    0
  0.1989999356699633                    0   0.2033132951478006                    0   0.1949074648293465                    0   0.1976875507098849                    0
  0.1958132957626773                    0    0.200160042804115                    0
  0.1934600777031501                    0   0.1896386818778072                    0   0.1991707971882549                    0    0.774955546089925                  180
  0.2042597734203362                    0   0.1989102278412098                    0    0.193572629934604                    0    0.202153462445393                    0
  0.1960928051177635                    0    0.197697089451186                    0
  0.1918301466614926                    0   0.1880730809009078                    0   0.1989999356699635                    0   0.2042597734203364                    0
  0.7681165746518503                  180   0.2011382949961473                    0   0.1914662913728085                    0   0.1971323449817777                    0
  0.1931813806148095                    0   0.2020353249233859                    0
  0.1932943207983643                    0   0.1894570455358978                    0   0.2033132951478007                    0   0.1989102278412101                    0
  0.2011382949961472                    0   0.7755881529195241                  180   0.1925490134552897                    0   0.1958895544048149                    0
  0.1935744612242913                    0   0.2074619384054866                    0
  0.2040480126686793                    0   0.1998328360009348                    0   0.1949074648293468                    0   0.1935726299346042                    0
  0.1914662913728084                    0   0.1925490134552897                    0   0.7685149881903538                  180   0.1974440623433127                    0
  0.2040485302284108                    0   0.1906461462467454                    0
  0.1960114367928255                    0   0.1921048916973511                    0   0.1976875507098849                    0   0.2021534624453928                    0
  0.1971323449817778                    0   0.1958895544048149                    0   0.1974440623433124                    0   0.7750950942078079                  180
   0.202497047157042                    0   0.1941747425651829                    0
  0.1993374165479768                    0   0.1953106027020686                    0   0.1958132957626776                    0   0.1960928051177636                    0
  0.1931813806148091                    0   0.1935744612242912                    0   0.2040485302284108                    0    0.202497047157042                    0
  0.7715715229354381                  180   0.1917159824701764                    0
  0.1913722870501683                    0   0.1875873999691233                    0    0.200160042804115                    0    0.197697089451186                    0
  0.2020353249233858                    0   0.2074619384054865                    0   0.1906461462467455                    0   0.1941747425651832                    0
  0.1917159824701766                    0   0.7628509549957897                  180

!
                   1   0.7792250874519295    179.9999998117844   0.2141993645912786 2.624321147124087e-07   0.1956720235277665 -1.420800201867604e-07   0.1934600777031503 -1.88543843728962e-07
  0.1918301466614927 -2.208738197436736e-07   0.1932943207983643 -2.183088817229611e-07   0.2040480126686794 1.11575832760086e-07   0.1960114367928257 -1.041471646039016e-07
   0.199337416547977 -4.467768974247019e-09   0.1913722870501683 -2.796248601267815e-07
  0.2141993645912787 2.624321147124084e-07   0.7479490050539795    179.9999991570794   0.1917451006683849 -4.635092003225657e-07   0.1896386818778071 -5.024181269393324e-07
  0.1880730809009075 -5.39192894363246e-07   0.1894570455358975 -5.381563354372062e-07   0.1998328360009343 -2.10988459677169e-07    0.192104891697351 -4.179194056835143e-07
  0.1953106027020684 -3.235310896731001e-07    0.187587399969123 -6.017133034870934e-07
  0.1956720235277664 -1.420800201867599e-07   0.1917451006683851 -4.635092003225662e-07   0.7774695074184179    179.9999997287658   0.1991707971882549 -6.312766312836414e-08
  0.1989999356699632 -3.632770955887253e-08   0.2033132951478006 6.128395780237357e-08   0.1949074648293465 -1.82593248041281e-07   0.1976875507098848 -8.709176196052097e-08
  0.1958132957626772 -1.296605744071684e-07   0.2001600428041149 -4.892572285180448e-08
    0.19346007770315 -1.885438437289607e-07   0.1896386818778072 -5.024181269393326e-07   0.1991707971882549 -6.312766312836399e-08   0.7749555460899248    179.9999997173656
  0.2042597734203362 5.178770337710603e-08   0.1989102278412097 -7.297055964980503e-08   0.1935726299346039 -1.972162688736918e-07   0.2021534624453931 4.530276912623633e-08
  0.1960928051177635 -1.119333978046538e-07   0.1976970894511859 -1.066532852422185e-07
  0.1918301466614925 -2.20873819743673e-07   0.1880730809009078 -5.391928943632464e-07   0.1989999356699635 -3.632770955887411e-08   0.2042597734203364 5.178770337710491e-08
  0.7681165746518501    179.9999997247424   0.2011382949961473 4.118791420410634e-08   0.1914662913728085 -2.427784765176965e-07   0.1971323449817777 -8.989598513072595e-08
  0.1931813806148095 -1.728932751335349e-07   0.2020353249233858 8.478430375810839e-08
  0.1932943207983643 -2.183088817229611e-07   0.1894570455358977 -5.381563354372067e-07   0.2033132951478007 6.128395780237258e-08   0.1989102278412101 -7.297055964980645e-08
  0.2011382949961472 4.118791420410716e-08   0.7755881529195237    179.9999997284165   0.1925490134552897 -2.505479703044024e-07   0.1958895544048148 -1.354731235220994e-07
  0.1935744612242912 -1.911798234581929e-07   0.2074619384054866 1.824854672606398e-07
  0.2040480126686794 1.115758327600862e-07   0.1998328360009348 -2.109884596771705e-07   0.1949074648293467 -1.825932480412819e-07   0.1935726299346042 -1.972162688736928e-07
  0.1914662913728084 -2.42778476517696e-07   0.1925490134552897 -2.505479703044025e-07   0.7685149881903536    179.9999996724336   0.1974440623433126 -9.686949133625556e-08
  0.2040485302284108 6.32689690452484e-08   0.1906461462467453 -3.089049295044623e-07
  0.1960114367928255 -1.041471646039005e-07    0.192104891697351 -4.179194056835148e-07   0.1976875507098848 -8.709176196052085e-08   0.2021534624453929 4.530276912623767e-08
  0.1971323449817778 -8.989598513072659e-08   0.1958895544048148 -1.35473123522099e-07   0.1974440623433124 -9.686949133625433e-08   0.7750950942078074    179.9999997514751
  0.2024970471570421 6.857602749804039e-08   0.1941747425651828 -1.834085294936803e-07
  0.1993374165479768 -4.467768974245909e-09   0.1953106027020685 -3.235310896731004e-07   0.1958132957626775 -1.296605744071698e-07   0.1960928051177635 -1.11933397804654e-07
   0.193181380614809 -1.728932751335335e-07   0.1935744612242911 -1.911798234581927e-07   0.2040485302284108 6.326896904524877e-08    0.202497047157042 6.857602749804098e-08
  0.7715715229354381    179.9999997396929   0.1917159824701763 -2.451493478701254e-07
  0.1913722870501683 -2.796248601267814e-07   0.1875873999691233 -6.017133034870939e-07   0.2001600428041149 -4.89257228518045e-08    0.197697089451186 -1.066532852422192e-07
  0.2020353249233858 8.478430375810829e-08   0.2074619384054866 1.824854672606399e-07   0.1906461462467454 -3.089049295044627e-07   0.1941747425651832 -1.834085294936818e-07
  0.1917159824701766 -2.45149347870126e-07   0.7628509549957895    179.9999996298043

!
             1.16591   0.7792250874519295    179.9999997805575   0.2141993645912786 3.059722268643443e-07   0.1956720235277665 -1.656525163359458e-07   0.1934600777031503 -2.198251528420341e-07
  0.1918301466614927 -2.575189951773465e-07   0.1932943207983643 -2.545285082896176e-07   0.2040480126686794 1.300873791733118e-07   0.1960114367928257 -1.214262206833349e-07
   0.199337416547977 -5.209016524764357e-09   0.1913722870501683 -3.260174206704158e-07
  0.2141993645912787 3.05972226864344e-07   0.7479490050539795    179.9999990172304   0.1917451006683849 -5.404100117480824e-07   0.1896386818778071 -5.857743183798372e-07
  0.1880730809009075 -6.286503874670522e-07   0.1894570455358975 -6.274418530495932e-07   0.1998328360009343 -2.459935550222081e-07   0.1921048916973509 -4.872564142804662e-07
  0.1953106027020684 -3.772081327607642e-07    0.187587399969123 -7.015435576686368e-07
  0.1956720235277664 -1.656525163359452e-07   0.1917451006683851 -5.404100117480832e-07   0.7774695074184179    179.9999996837653   0.1991707971882549 -7.360117371799102e-08
  0.1989999356699632 -4.235483985178506e-08   0.2033132951478006 7.145157924136535e-08   0.1949074648293465 -2.128872938238099e-07   0.1976875507098848 -1.01541156187391e-07
  0.1958132957626772 -1.511725603070618e-07   0.2001600428041149 -5.704298953014735e-08
    0.19346007770315 -2.198251528420326e-07   0.1896386818778072 -5.857743183798373e-07   0.1991707971882549 -7.360117371799087e-08   0.7749555460899248    179.9999996704737
  0.2042597734203362 6.037980124440168e-08   0.1989102278412097 -8.507710520130415e-08   0.1935726299346039 -2.299364200425259e-07   0.2021534624453931 5.281895155197016e-08
  0.1960928051177635 -1.305042678344239e-07   0.1976970894511859 -1.243481317967549e-07
  0.1918301466614925 -2.575189951773458e-07   0.1880730809009077 -6.286503874670527e-07   0.1989999356699635 -4.235483985178694e-08   0.2042597734203364 6.037980124440038e-08
  0.7681165746518501    179.9999996790744   0.2011382949961473 4.802140104970958e-08   0.1914662913728085 -2.830578535567475e-07   0.1971323449817777 -1.048106280237647e-07
  0.1931813806148095 -2.015779984109396e-07   0.2020353249233858 9.885086759461613e-08
  0.1932943207983643 -2.545285082896175e-07   0.1894570455358977 -6.274418530495938e-07   0.2033132951478008 7.145157924136417e-08   0.1989102278412101 -8.507710520130581e-08
  0.2011382949961472 4.802140104971059e-08   0.7755881529195237    179.9999996833581   0.1925490134552897 -2.921163840576058e-07   0.1958895544048148 -1.579494694456509e-07
  0.1935744612242912 -2.228984679681417e-07   0.2074619384054866 2.127616311338526e-07
  0.2040480126686794 1.300873791733121e-07   0.1998328360009348 -2.459935550222099e-07   0.1949074648293467 -2.12887293823811e-07   0.1935726299346042 -2.299364200425271e-07
  0.1914662913728084 -2.830578535567469e-07   0.1925490134552897 -2.92116384057606e-07   0.7685149881903536    179.9999996180871   0.1974440623433126 -1.129411086438538e-07
  0.2040485302284108 7.376592369954553e-08   0.1906461462467453 -3.601553463585476e-07
  0.1960114367928255 -1.214262206833336e-07    0.192104891697351 -4.872564142804667e-07   0.1976875507098848 -1.015411561873909e-07   0.2021534624453929 5.281895155197174e-08
  0.1971323449817778 -1.048106280237655e-07   0.1958895544048148 -1.579494694456504e-07   0.1974440623433124 -1.129411086438522e-07   0.7750950942078074    179.9999997102423
  0.2024970471570421 7.995347622024021e-08   0.1941747425651828 -2.138378386219768e-07
  0.1993374165479768 -5.20901652476304e-09   0.1953106027020685 -3.772081327607646e-07   0.1958132957626775 -1.511725603070633e-07   0.1960928051177635 -1.305042678344241e-07
   0.193181380614809 -2.01577998410938e-07   0.1935744612242911 -2.228984679681414e-07   0.2040485302284108 7.376592369954597e-08    0.202497047157042 7.995347622024096e-08
  0.7715715229354381    179.9999996965054   0.1917159824701763 -2.858220761752579e-07
  0.1913722870501683 -3.260174206704157e-07   0.1875873999691233 -7.015435576686377e-07   0.2001600428041149 -5.704298953014736e-08    0.197697089451186 -1.243481317967558e-07
  0.2020353249233858 9.885086759461604e-08   0.2074619384054866 2.127616311338527e-07   0.1906461462467454 -3.601553463585481e-07   0.1941747425651832 -2.138378386219786e-07
  0.1917159824701766 -2.858220761752586e-07   0.7628509549957895     179.999999568385

!
             1.35936   0.7792250874519295    179.9999997441472   0.2141993645912786 3.567397194554599e-07   0.1956720235277665 -1.931378962410745e-07   0.1934600777031503 -2.562989594114018e-07
  0.1918301466614927 -3.002470356067601e-07   0.1932943207983643 -2.967603614589244e-07   0.2040480126686794 1.516717240207505e-07   0.1960114367928257 -1.415734896759596e-07
   0.199337416547977 -6.073306432832423e-09   0.1913722870501683 -3.801108498619417e-07
  0.2141993645912787 3.567397194554594e-07   0.7479490050539795    179.9999988541674   0.1917451006683849 -6.300758665504828e-07   0.1896386818778071 -6.82967105036251e-07
  0.1880730809009075 -7.32957252881622e-07   0.1894570455358975 -7.315481961399208e-07   0.1998328360009343 -2.868092725467566e-07   0.1921048916973509 -5.681029233099422e-07
  0.1953106027020684 -4.397952220580253e-07    0.187587399969123 -8.179449962282152e-07
  0.1956720235277664 -1.931378962410739e-07   0.1917451006683851 -6.300758665504837e-07   0.7774695074184179     179.999999631295   0.1991707971882549 -8.581322015017308e-08
  0.1989999356699632 -4.938243526594898e-08   0.2033132951478006 8.330696087823455e-08   0.1949074648293465 -2.482099576573957e-07   0.1976875507098848 -1.183890575386538e-07
  0.1958132957626772 -1.762553984261285e-07   0.2001600428041149 -6.650767061582893e-08
    0.19346007770315  -2.562989594114e-07   0.1896386818778072 -6.829671050362512e-07   0.1991707971882549 -8.581322015017286e-08   0.7749555460899248    179.9999996157981
  0.2042597734203362 7.039813246270289e-08   0.1989102278412097 -9.919325996555896e-08   0.1935726299346039 -2.680879072561416e-07   0.2021534624453931 6.158277223944061e-08
  0.1960928051177635 -1.521577836397342e-07   0.1976970894511859 -1.449802098268621e-07
  0.1918301466614925 -3.002470356067593e-07   0.1880730809009078 -7.329572528816228e-07   0.1989999356699635 -4.938243526595114e-08   0.2042597734203364 7.039813246270132e-08
  0.7681165746518501    179.9999996258258   0.2011382949961473 5.598920305249398e-08   0.1914662913728085 -3.300233498390959e-07   0.1971323449817777 -1.222010063473036e-07
  0.1931813806148095 -2.35024202485522e-07   0.2020353249233858 1.152523911566222e-07
  0.1932943207983643 -2.967603614589244e-07   0.1894570455358978 -7.315481961399212e-07   0.2033132951478008 8.33069608782332e-08   0.1989102278412101 -9.919325996556089e-08
  0.2011382949961472 5.598920305249512e-08   0.7755881529195237    179.9999996308203   0.1925490134552897 -3.405848889129925e-07   0.1958895544048148 -1.84156745191001e-07
  0.1935744612242912 -2.59882204816129e-07   0.2074619384054866 2.480634447754234e-07
  0.2040480126686794 1.516717240207508e-07   0.1998328360009348 -2.868092725467586e-07   0.1949074648293467 -2.48209957657397e-07   0.1935726299346042 -2.68087907256143e-07
  0.1914662913728084 -3.300233498390953e-07   0.1925490134552897 -3.405848889129927e-07   0.7685149881903536    179.9999995547194   0.1974440623433126 -1.316805117428524e-07
  0.2040485302284108 8.600530576134886e-08   0.1906461462467453 -4.199130049711858e-07
  0.1960114367928255 -1.415734896759582e-07    0.192104891697351 -5.681029233099426e-07   0.1976875507098848 -1.183890575386536e-07   0.2021534624453929 6.158277223944245e-08
  0.1971323449817778 -1.222010063473045e-07   0.1958895544048148 -1.841567451910005e-07   0.1974440623433124 -1.316805117428507e-07   0.7750950942078074    179.9999996621652
  0.2024970471570421 9.321950873973619e-08   0.1941747425651828 -2.493182186525293e-07
  0.1993374165479768 -6.073306432830883e-09   0.1953106027020685 -4.397952220580258e-07   0.1958132957626775 -1.762553984261303e-07   0.1960928051177635 -1.521577836397344e-07
   0.193181380614809 -2.350242024855201e-07   0.1935744612242911 -2.598822048161288e-07   0.2040485302284108 8.60053057613494e-08    0.202497047157042 9.321950873973705e-08
  0.7715715229354381     179.999999646149   0.1917159824701763 -3.332462175207337e-07
  0.1913722870501683 -3.801108498619415e-07   0.1875873999691233 -8.179449962282159e-07   0.2001600428041149 -6.650767061582893e-08    0.197697089451186 -1.449802098268631e-07
  0.2020353249233858 1.152523911566221e-07   0.2074619384054866 2.480634447754235e-07   0.1906461462467454 -4.199130049711864e-07   0.1941747425651832 -2.493182186525314e-07
  0.1917159824701766 -3.332462175207345e-07   0.7628509549957895    179.9999994967707

!
              1.4678   0.7792250874519295    179.9999997237371   0.2141993645912786 3.851978579748734e-07   0.1956720235277665 -2.085450536301268e-07   0.1934600777031503 -2.767446538253705e-07
  0.1918301466614927 -3.241985926197641e-07   0.1932943207983643 -3.204337765929623e-07   0.2040480126686794 1.637710073252542e-07   0.1960114367928257 -1.528672082056067e-07
   0.199337416547977 -6.557791300399773e-09   0.1913722870501683 -4.104333696940898e-07
  0.2141993645912787 3.851978579748729e-07   0.7479490050539797    179.9999987627611   0.1917451006683849 -6.803388042334618e-07   0.1896386818778071 -7.374493267215522e-07
  0.1880730809009075 -7.914273303463724e-07   0.1894570455358975 -7.899058691547312e-07   0.1998328360009343 -3.096888611141487e-07   0.1921048916973509 -6.134221036622622e-07
  0.1953106027020684 -4.748789334221763e-07    0.187587399969123 -8.831947868583555e-07
  0.1956720235277664 -2.085450536301261e-07   0.1917451006683851 -6.803388042334627e-07   0.7774695074184179    179.9999996018824   0.1991707971882549 -9.26587839398129e-08
