! Touchstone data
! Created: 18-Apr-2025 by IdEM 2023 (2023.0.0)
!
!*********************************************************
! COMMENTS
!*********************************************************
!
!  Touchstone file exported from Ansys Full-Wave Spice
!  Project: 0000_PSI_S-parameter_Sweep
!   Design: unknown
!  Creation time: Thu Apr 17 17:05:54 2025
!  Notes: ! Touchstone(R) file created by SIwave 2025 R1
!       : ! Touchstone(R) file created on Thu Apr 17 17:05:54 2025
! 
!  Modal data exported
!  Port[1] = PORT_1_DIE1_VDDCR_AIE_Group_DIE1_GRP_1_1_VSS
!  Port[2] = PORT_2_BGA1_VDDCR_AIE_Group_BGA1_GRP_1_1_VSS
!  Port[3] = VDDCR_AIE_C10_2
!  Port[4] = VDDCR_AIE_C32_2
!  Port[5] = VDDCR_AIE_C90_1
!  Port[6] = VDDCR_AIE_C91_1
!  Port[7] = VDDCR_AIE_C126_2
!  Port[8] = VDDCR_AIE_C127_1
!
!*********************************************************
!
!
!---------------------------
! Options Used in IdEM Flow
!---------------------------
!
! Fitting Options !
!
! Bandwidth: 1.0000e+09 Hz
! Order: [2 2 4] 
! SplitType: none 
! tol: 1.0000e-03 
! DC Point: enforced 
!
!---------------------------
!
! Passivity Options !
!
! Alg: SOC+HAM 
!    Max SOC it: 200 
!    Max HAM it: 50 
! Freq sampling: adaptive
! DC Point: enforced
! Optimization method: Model based
!
!---------------------------
!

# Hz S MA R 0.1

!
                   0   0.6970273954613294                  180   0.3008443708747578                    0   0.2356790736192049                    0   0.2330996148699117                    0
  0.2314349943452218                    0   0.2357456316159591                    0   0.2311636430598114                    0   0.2290600659662396                    0
  0.3008443708747587                    0   0.6897020641190637                  180   0.2344562607199441                    0   0.2319174658527642                    0
  0.2301782230529114                    0   0.2344565222852746                    0   0.2300137240604118                    0   0.2278354961627774                    0
  0.2356790736192049                    0   0.2344562607199438                    0   0.7139199606950846                  180   0.2520138165136993                    0
  0.2477312297767341                    0   0.2508563360571532                    0   0.2479265993858901                    0   0.2452566435122354                    0
   0.233099614869912                    0   0.2319174658527641                    0   0.2520138165136997                    0   0.7227226240865883                  180
  0.2511492191872453                    0   0.2493084157089783                    0   0.2548195564544329                    0   0.2504145343893348                    0
  0.2314349943452222                    0   0.2301782230529114                    0   0.2477312297767343                    0   0.2511492191872455                    0
  0.7187492161400517                  180   0.2522576610903916                    0    0.250754497096344                    0   0.2552433904809809                    0
  0.2357456316159591                    0   0.2344565222852743                    0   0.2508563360571534                    0    0.249308415708978                    0
  0.2522576610903915                    0   0.7171934921375867                  180   0.2471227414128403                    0   0.2474461828567672                    0
  0.2311636430598116                    0   0.2300137240604116                    0   0.2479265993858905                    0   0.2548195564544327                    0
   0.250754497096344                    0   0.2471227414128401                    0   0.7171295298349167                  180   0.2553287672549621                    0
  0.2290600659662399                    0   0.2278354961627776                    0   0.2452566435122354                    0   0.2504145343893349                    0
  0.2552433904809808                    0   0.2474461828567674                    0   0.2553287672549622                    0   0.7105850817335202                  180

!
                   1   0.6970273954613292    179.9999996352211   0.3008443708747579 7.057004536050409e-07   0.2356790736192049 -2.43590315731605e-07   0.2330996148699116 -3.169479413583075e-07
  0.2314349943452218 -4.02748571244161e-07   0.2357456316159591 -2.018046317580101e-07   0.2311636430598114 -3.417788347216925e-07   0.2290600659662396 -4.911776784058213e-07
  0.3008443708747588 7.05700453605036e-07   0.6897020641190637    179.9999994598861   0.2344562607199441 -3.33731944489508e-07   0.2319174658527642 -4.05413070088865e-07
  0.2301782230529114 -4.896734514105164e-07   0.2344565222852746 -2.92433673007553e-07   0.2300137240604117 -4.298599782869418e-07   0.2278354961627774 -5.77947001835458e-07
  0.2356790736192049 -2.43590315731605e-07   0.2344562607199437 -3.337319444895071e-07   0.7139199606950846    179.9999994703363   0.2520138165136993 1.390350360489519e-08
  0.2477312297767341 -3.018866419800762e-07   0.2508563360571532 -1.49117549773319e-07   0.2479265993858902 -1.761450873363836e-07   0.2452566435122354 -3.758008931000795e-07
  0.2330996148699119 -3.169479413583082e-07   0.2319174658527641 -4.054130700888648e-07   0.2520138165136997 1.390350360489399e-08   0.7227226240865883    179.9999995634685
  0.2511492191872453 -2.351183722644398e-07   0.2493084157089783 -1.629634763840223e-07   0.2548195564544329 3.010534057646926e-08   0.2504145343893348 -2.440835736779658e-07
  0.2314349943452222 -4.027485712441618e-07   0.2301782230529114 -4.896734514105163e-07   0.2477312297767343 -3.018866419800765e-07   0.2511492191872455 -2.351183722644405e-07
  0.7187492161400517    179.9999994773571   0.2522576610903916 -1.380522920849498e-08    0.250754497096344 -1.811825182925747e-07    0.255243390480981 4.288661006343055e-08
  0.2357456316159591 -2.018046317580098e-07   0.2344565222852743 -2.924336730075523e-07   0.2508563360571534 -1.491175497733194e-07    0.249308415708978 -1.629634763840214e-07
  0.2522576610903915 -1.380522920849498e-08   0.7171934921375867    179.9999995830719   0.2471227414128403 -1.754538186615265e-07   0.2474461828567672 -2.424620346337202e-07
  0.2311636430598116 -3.417788347216932e-07   0.2300137240604116 -4.298599782869414e-07   0.2479265993858905 -1.761450873363845e-07   0.2548195564544327 3.010534057647011e-08
   0.250754497096344 -1.811825182925747e-07   0.2471227414128401 -1.75453818661526e-07   0.7171295298349167    179.9999995498877   0.2553287672549621 -8.664128030877539e-08
  0.2290600659662399 -4.911776784058218e-07   0.2278354961627775 -5.779470018354582e-07   0.2452566435122354 -3.758008931000798e-07   0.2504145343893349 -2.44083573677966e-07
  0.2552433904809809 4.28866100634308e-08   0.2474461828567674 -2.424620346337208e-07   0.2553287672549622 -8.664128030877589e-08   0.7105850817335202    179.9999993434215

!
             1.16591   0.6970273954613292    179.9999995747007    0.300844370874758 8.227832158626531e-07   0.2356790736192049 -2.840043850146356e-07   0.2330996148699116 -3.695327743090643e-07
  0.2314349943452218 -4.695685866992796e-07   0.2357456316159591 -2.352860382129815e-07   0.2311636430598114 -3.984833611903685e-07   0.2290600659662396 -5.726689670301312e-07
  0.3008443708747588 8.227832158626473e-07   0.6897020641190637    179.9999993702759   0.2344562607199441 -3.891014113997623e-07   0.2319174658527642 -4.726751525473084e-07
  0.2301782230529114 -5.709151737340351e-07   0.2344565222852746 -3.40951343696236e-07   0.2300137240604117 -5.011780472845284e-07   0.2278354961627774 -6.738341889099788e-07
  0.2356790736192049 -2.840043850146356e-07   0.2344562607199437 -3.891014113997613e-07   0.7139199606950846    179.9999993824598   0.2520138165136993 1.621023388798329e-08
  0.2477312297767341 -3.519726547509906e-07   0.2508563360571532 -1.738576424562104e-07   0.2479265993858902 -2.053693187763631e-07   0.2452566435122354 -4.381500192743137e-07
  0.2330996148699119 -3.695327743090651e-07   0.2319174658527641 -4.726751525473083e-07   0.2520138165136997 1.62102338879819e-08   0.7227226240865883    179.9999994910435
  0.2511492191872453 -2.74126861406833e-07   0.2493084157089783 -1.900007467508954e-07   0.2548195564544329 3.510011763151135e-08   0.2504145343893348 -2.845794793868771e-07
  0.2314349943452222 -4.695685866992806e-07   0.2301782230529114 -5.70915173734035e-07   0.2477312297767343 -3.51972654750991e-07   0.2511492191872455 -2.741268614068337e-07
  0.7187492161400517    179.9999993906454   0.2522576610903916 -1.609565478647647e-08    0.250754497096344 -2.112425099024958e-07    0.255243390480981 5.000192753905426e-08
  0.2357456316159591 -2.352860382129812e-07   0.2344565222852743 -3.409513436962352e-07   0.2508563360571534 -1.738576424562108e-07    0.249308415708978 -1.900007467508944e-07
  0.2522576610903915 -1.609565478647638e-08   0.7171934921375867    179.9999995138994   0.2471227414128403 -2.045633617156603e-07   0.2474461828567672 -2.826889107998007e-07
  0.2311636430598116 -3.984833611903691e-07   0.2300137240604116 -5.011780472845278e-07   0.2479265993858905 -2.053693187763641e-07   0.2548195564544327 3.51001176315124e-08
   0.250754497096344 -2.112425099024958e-07   0.2471227414128401 -2.045633617156597e-07   0.7171295298349167    179.9999994752095   0.2553287672549621 -1.010159351248043e-07
  0.2290600659662399 -5.726689670301317e-07   0.2278354961627776 -6.738341889099788e-07   0.2452566435122354 -4.381500192743138e-07   0.2504145343893349 -2.845794793868773e-07
  0.2552433904809809 5.000192753905455e-08   0.2474461828567674 -2.826889107998015e-07   0.2553287672549622 -1.010159351248049e-07   0.7105850817335203    179.9999992344886

!
             1.35936   0.6970273954613292    179.9999995041342    0.300844370874758 9.593009686125482e-07   0.2356790736192049 -3.311269315929146e-07   0.2330996148699116 -4.308463535648289e-07
  0.2314349943452218 -5.474802978064626e-07   0.2357456316159591 -2.743251442265686e-07   0.2311636430598114 -4.646004767672799e-07   0.2290600659662397 -6.676872889177374e-07
  0.3008443708747588 9.593009686125412e-07   0.6897020641190638    179.9999992657908   0.2344562607199441 -4.536618560612575e-07   0.2319174658527642 -5.511023109559993e-07
  0.2301782230529114 -6.656425029093994e-07   0.2344565222852746 -3.97522637739547e-07   0.2300137240604117 -5.843344600841371e-07   0.2278354961627774 -7.85638036415048e-07
  0.2356790736192049 -3.311269315929146e-07   0.2344562607199437 -4.536618560612564e-07   0.7139199606950846    179.9999992799964   0.2520138165136993 1.889986666035033e-08
  0.2477312297767341 -4.103726256420363e-07   0.2508563360571532 -2.02704432459859e-07   0.2479265993858902 -2.394445859215865e-07   0.2452566435122354 -5.108487020445241e-07
  0.2330996148699119 -4.308463535648298e-07   0.2319174658527641 -5.511023109559993e-07   0.2520138165136997 1.88998666603487e-08   0.7227226240865883    179.9999994065965
  0.2511492191872453 -3.196105105213889e-07   0.2493084157089783 -2.215260312573845e-07   0.2548195564544329 4.092399576602932e-08   0.2504145343893348 -3.317974467148796e-07
  0.2314349943452222 -5.474802978064637e-07   0.2301782230529114 -6.656425029093992e-07   0.2477312297767343 -4.103726256420368e-07   0.2511492191872455 -3.196105105213897e-07
  0.7187492161400517    179.9999992895401   0.2522576610903916 -1.876627637685975e-08    0.250754497096344 -2.462922680661944e-07    0.255243390480981 5.829834225582483e-08
  0.2357456316159591 -2.743251442265682e-07   0.2344565222852743 -3.975226377395462e-07   0.2508563360571534 -2.027044324598594e-07    0.249308415708978 -2.215260312573833e-07
  0.2522576610903915 -1.876627637685966e-08   0.7171934921375867    179.9999994332447   0.2471227414128403 -2.385049029357326e-07   0.2474461828567672 -3.295931913996939e-07
  0.2311636430598116 -4.646004767672807e-07   0.2300137240604116 -5.843344600841367e-07   0.2479265993858905 -2.394445859215877e-07   0.2548195564544327 4.092399576603056e-08
   0.250754497096344 -2.462922680661944e-07   0.2471227414128401 -2.385049029357319e-07   0.7171295298349167    179.9999993881353   0.2553287672549621 -1.177766908005369e-07
    0.22906006596624 -6.676872889177379e-07   0.2278354961627776 -7.856380364150481e-07   0.2452566435122354 -5.108487020445244e-07   0.2504145343893349 -3.317974467148797e-07
  0.2552433904809809 5.829834225582519e-08   0.2474461828567674 -3.295931913996948e-07   0.2553287672549622 -1.177766908005376e-07   0.7105850817335203    179.9999991074735

!
              1.4678   0.6970273954613292    179.9999994645776    0.300844370874758 1.035827125801479e-06   0.2356790736192049 -3.575418654308498e-07   0.2330996148699116 -4.652161883257237e-07
  0.2314349943452218 -5.911543528721793e-07   0.2357456316159591 -2.962088384944071e-07   0.2311636430598114 -5.016629736045002e-07   0.2290600659662397 -7.209505963640645e-07
  0.3008443708747588 1.035827125801471e-06   0.6897020641190638    179.9999992072209   0.2344562607199441 -4.898517481216998e-07   0.2319174658527642 -5.950653042764357e-07
  0.2301782230529114 -7.187426919803557e-07   0.2344565222852746 -4.292341452404862e-07   0.2300137240604118 -6.309484761295732e-07   0.2278354961627774 -8.483106092940851e-07
  0.2356790736192049 -3.575418654308498e-07   0.2344562607199437 -4.898517481216985e-07   0.7139199606950847    179.9999992225596   0.2520138165136993 2.040756259126519e-08
  0.2477312297767341 -4.431092130983558e-07   0.2508563360571532 -2.188747395572777e-07   0.2479265993858902 -2.585457591923439e-07   0.2452566435122354 -5.516005508922967e-07
  0.2330996148699119 -4.652161883257248e-07   0.2319174658527641 -5.950653042764356e-07   0.2520138165136997 2.040756259126336e-08   0.7227226240865883     179.999999359259
  0.2511492191872453 -3.451067468097448e-07   0.2493084157089783 -2.391977906364679e-07   0.2548195564544329 4.418861889814159e-08   0.2504145343893348 -3.582658694445183e-07
  0.2314349943452222 -5.911543528721806e-07   0.2301782230529114 -7.187426919803559e-07   0.2477312297767343 -4.431092130983564e-07   0.2511492191872455 -3.451067468097456e-07
  0.7187492161400518    179.9999992328647   0.2522576610903916 -2.0263315432229e-08    0.250754497096344 -2.659397003498412e-07    0.255243390480981 6.294896625110325e-08
  0.2357456316159591 -2.962088384944068e-07   0.2344565222852743 -4.292341452404852e-07   0.2508563360571534 -2.188747395572782e-07    0.249308415708978 -2.391977906364666e-07
  0.2522576610903915 -2.026331543222891e-08   0.7171934921375867     179.999999388033   0.2471227414128403 -2.575311150313885e-07   0.2474461828567672 -3.558857744353746e-07
  0.2311636430598116 -5.016629736045011e-07   0.2300137240604116 -6.309484761295726e-07   0.2479265993858905 -2.585457591923452e-07   0.2548195564544327 4.418861889814302e-08
   0.250754497096344 -2.659397003498412e-07   0.2471227414128401 -2.575311150313878e-07   0.7171295298349167    179.9999993393251   0.2553287672549621 -1.271720712372205e-07
    0.22906006596624 -7.209505963640653e-07   0.2278354961627776 -8.483106092940853e-07   0.2452566435122354 -5.516005508922969e-07   0.2504145343893349 -3.582658694445184e-07
  0.2552433904809809 6.294896625110374e-08   0.2474461828567674 -3.558857744353754e-07   0.2553287672549622 -1.271720712372213e-07   0.7105850817335203     179.999999036274

!
             1.58489   0.6970273954613292    179.9999994218656    0.300844370874758 1.118457591914093e-06   0.2356790736192049 -3.860638554998635e-07   0.2330996148699116 -5.023276227793679e-07
  0.2314349943452218 -6.383121830791581e-07   0.2357456316159591 -3.198381428269525e-07   0.2311636430598114 -5.416818573620633e-07   0.2290600659662397 -7.784625907286023e-07
  0.3008443708747588 1.118457591914085e-06   0.6897020641190638    179.9999991439789   0.2344562607199441 -5.289284215019762e-07   0.2319174658527642 -6.42535120653141e-07
  0.2301782230529114 -7.760785564060132e-07   0.2344565222852746 -4.634752040129405e-07   0.2300137240604118 -6.812807809871911e-07   0.2278354961627774 -9.15982423738999e-07
  0.2356790736192049 -3.860638554998635e-07   0.2344562607199437 -5.28928421501975e-07   0.7139199606950847    179.9999991605413   0.2520138165136993 2.203552382836244e-08
  0.2477312297767341 -4.784571200078028e-07   0.2508563360571532 -2.363349134602357e-07   0.2479265993858902 -2.79170587468561e-07   0.2452566435122354 -5.956030774653851e-07
  0.2330996148699119 -5.023276227793691e-07   0.2319174658527641 -6.425351206531409e-07   0.2520138165136997 2.203552382836052e-08   0.7227226240865883    179.9999993081455
  0.2511492191872453 -3.72636757018188e-07   0.2493084157089783 -2.582791840862731e-07   0.2548195564544329 4.771365322624041e-08   0.2504145343893348 -3.868456150864713e-07
  0.2314349943452222 -6.383121830791595e-07   0.2301782230529114 -7.760785564060132e-07   0.2477312297767343 -4.784571200078034e-07   0.2511492191872455 -3.726367570181889e-07
  0.7187492161400518    179.9999991716684   0.2522576610903916 -2.187976972025152e-08    0.250754497096344 -2.871543614167188e-07    0.255243390480981 6.797055942343036e-08
  0.2357456316159591 -3.198381428269522e-07   0.2344565222852743 -4.634752040129395e-07   0.2508563360571534 -2.363349134602361e-07    0.249308415708978 -2.582791840862717e-07
  0.2522576610903915 -2.187976972025143e-08   0.7171934921375867    179.9999993392149   0.2471227414128403 -2.780750026584667e-07   0.2474461828567672 -3.842756540706368e-07
  0.2311636430598116 -5.416818573620642e-07   0.2300137240604116 -6.812807809871905e-07   0.2479265993858905 -2.791705874685625e-07   0.2548195564544327 4.771365322624186e-08
   0.250754497096344 -2.871543614167188e-07   0.2471227414128401 -2.780750026584658e-07   0.7171295298349168    179.9999992866214   0.2553287672549621 -1.37316898748575e-07
    0.22906006596624 -7.784625907286029e-07   0.2278354961627776 -9.15982423738999e-07   0.2452566435122354 -5.956030774653854e-07   0.2504145343893349 -3.868456150864713e-07
  0.2552433904809809 6.797055942343076e-08   0.2474461828567674 -3.842756540706378e-07   0.2553287672549622 -1.373168987485759e-07   0.7105850817335203    179.9999989593953

!
             1.71133   0.6970273954613292     179.999999375743    0.300844370874758 1.207686357267914e-06   0.2356790736192049 -4.168634150209676e-07   0.2330996148699116 -5.424025204847124e-07
  0.2314349943452218 -6.892357124272698e-07   0.2357456316159591 -3.453543204664354e-07   0.2311636430598114 -5.84896373224274e-07   0.2290600659662396 -8.405670963862343e-07
  0.3008443708747588 1.207686357267906e-06   0.6897020641190635    179.9999990756869   0.2344562607199441 -5.711254885632296e-07   0.2319174658527642 -6.937955492351772e-07
  0.2301782230529113 -8.379928676023589e-07   0.2344565222852746 -5.004505176280155e-07   0.2300137240604118 -7.35632276641792e-07   0.2278354961627773 -9.890580426510745e-07
  0.2356790736192048 -4.168634150209677e-07   0.2344562607199437 -5.711254885632283e-07   0.7139199606950847    179.9999990935707   0.2520138165136993 2.379348282416532e-08
  0.2477312297767341 -5.166276670197637e-07   0.2508563360571532 -2.55189336453574e-07   0.2479265993858902 -3.014423723113734e-07   0.2452566435122354 -6.431193423889592e-07
  0.2330996148699119 -5.424025204847135e-07   0.2319174658527641 -6.937955492351769e-07   0.2520138165136997 2.379348282416321e-08   0.7227226240865883    179.9999992529505
  0.2511492191872453 -4.023651240073038e-07   0.2493084157089783 -2.788842860402688e-07   0.2548195564544329 5.152017248872921e-08   0.2504145343893348 -4.177075421423132e-07
  0.2314349943452222 -6.892357124272712e-07   0.2301782230529114 -8.379928676023589e-07   0.2477312297767343 -5.166276670197644e-07   0.2511492191872455 -4.023651240073049e-07
  0.7187492161400518    179.9999991055855   0.2522576610903916 -2.36253029013737e-08    0.250754497096344 -3.100630790296319e-07    0.255243390480981 7.339314239985049e-08
